  can1  0C0   [8]  00 00 00 00 01 00 00 00
  can1  0000020B   [4]  42 F0 00 00
  can1       0AD   [8]  00 00 00 00 00 00 00 00
  can1       0AC   [8]  00 00 01 00 0E 10 0D 00
  can1  00000B02   [8]  8B 09 00 AB 00 00 00 00
  can1       0AB   [8]  00 00 00 00 00 00 00 00
  can1       0A8   [8]  47 00 49 22 00 00 03 00
  can1       0A7   [8]  14 15 00 00 7A FF 43 FF
  can1       0A6   [8]  FA FF FE FF FB FF 00 00
  can1       0A5   [8]  E1 05 00 00 00 00 0A 06
  can1       0A4   [8]  00 00 00 00 00 00 00 00
  can1       0A3   [8]  EC 01 E6 01 EC 01 EB 01
  can1       0C0   [8]  00 00 00 00 01 00 00 00
  can1  0000020B   [4]  42 20 CC CD
  can1       0C0   [8]  00 00 00 00 01 00 00 00
  can1  00000B02   [8]  8B 09 00 3F 00 00 00 00
  can1       0AD   [8]  00 00 00 00 00 00 00 00
  can1  0000020B   [4]  43 1A 99 9A
  can1       0AC   [8]  00 00 02 00 11 10 0D 00
  can1       0AB   [8]  00 00 00 00 00 00 00 00
  can1       0A8   [8]  47 00 49 22 F5 FF 03 00
  can1       0A7   [8]  1B 15 00 00 71 FF 46 FF
  can1  00000B02   [8]  8B 09 00 7E 00 00 00 00
  can1       0A6   [8]  05 00 08 00 09 00 00 00
  can1       0A5   [8]  E2 05 00 00 00 00 0A 06
  can1       0A4   [8]  00 00 00 00 00 00 00 00
  can1       0A3   [8]  EC 01 E6 01 EC 01 EB 01
  can1       0C0   [8]  00 00 00 00 01 00 00 00
  can1  0000020B   [4]  41 E7 33 33
  can1       0C0   [8]  00 00 00 00 01 00 00 00
  can1  00000B02   [8]  8B 09 00 A6 00 00 00 00
  can1       0AD   [8]  00 00 00 00 00 00 00 00
  can1  0000020B   [4]  3F 80 00 00
  can1       0AC   [8]  00 00 01 00 14 10 0D 00
  can1       0AB   [8]  00 00 00 00 00 00 00 00
  can1       0A8   [8]  47 00 49 22 00 00 03 00
  can1       0A7   [8]  1F 15 00 00 7A FF 46 FF
  can1       0A6   [8]  08 00 08 00 09 00 00 00
  can1       0A5   [8]  E1 05 00 00 00 00 0A 06
  can1  00000B02   [8]  8B 09 00 7D 00 00 00 00
  can1       0A4   [8]  00 00 00 00 00 00 00 00
  can1       0A3   [8]  EC 01 E6 01 EC 01 EB 01
  can1       0C0   [8]  00 00 00 00 01 00 00 00
  can1  0000020B   [4]  00 00 00 00
  can1       0C0   [8]  00 00 00 00 01 00 00 00
  can1  00000B02   [8]  8B 09 00 6C 00 00 00 00
  can1       0AD   [8]  00 00 00 00 00 00 00 00
  can1  0000020B   [4]  44 FA 00 00
  can1       0AE   [8]  10 00 24 18 10 05 13 20
  can1       0AC   [8]  00 00 02 00 17 10 0D 00
  can1       0AB   [8]  00 00 00 00 00 00 00 00
  can1       0AA   [8]  04 00 09 04 01 00 00 00
  can1       0A9   [8]  97 00 FA 00 FB 01 77 04
  can1       0A8   [8]  47 00 49 22 FE FF FF FF
  can1  00000B02   [8]  8B 09 00 8C 00 00 00 00
  can1       0A7   [8]  14 15 00 00 7A FF 3A FF
  can1       0A6   [8]  00 00 FE FF FE FF 00 00
  can1       0A5   [8]  E0 05 00 00 00 00 0A 06
  can1       0A4   [8]  00 00 00 00 00 00 00 00
  can1       0A3   [8]  EC 01 E6 01 EC 01 EC 01
  can1       0A2   [8]  F0 D8 F0 D8 21 01 00 00
  can1       0A1   [8]  B1 01 E9 08 E7 08 F0 D8
  can1       0A0   [8]  7C 01 7B 01 81 01 93 01
  can1       0C0   [8]  00 00 00 00 01 00 00 00
  can1       0AD   [8]  00 00 00 00 00 00 00 00
  can1  0000020B   [4]  00 00 00 00
  can1       0AC   [8]  00 00 00 00 1A 10 0D 00
  can1       0AB   [8]  00 00 00 00 00 00 00 00
  can1       0A8   [8]  47 00 49 22 12 00 00 00
  can1       0A7   [8]  1D 15 00 00 76 FF 4F FF
  can1       0A6   [8]  08 00 08 00 09 00 00 00
  can1       0A5   [8]  E2 05 00 00 00 00 0B 06
  can1  00000B02   [8]  8B 09 00 99 00 00 00 00
  can1       0A4   [8]  00 00 00 00 00 00 00 00
  can1       0A3   [8]  EB 01 E6 01 EC 01 EC 01
  can1       0C0   [8]  00 00 00 00 01 00 00 00
  can1       0C0   [8]  00 00 00 00 01 00 00 00
  can1  0000020B   [4]  C1 8D 99 9A
  can1       0AD   [8]  00 00 00 00 00 00 00 00
  can1       0AC   [8]  00 00 00 00 1D 10 0D 00
  can1  00000B02   [8]  8B 09 00 8D 00 00 00 00
  can1       0AB   [8]  00 00 00 00 00 00 00 00
  can1       0A8   [8]  47 00 49 22 00 00 00 00
  can1       0A7   [8]  17 15 00 00 7A FF 43 FF
  can1       0A6   [8]  00 00 00 00 FE FF 00 00
  can1       0A5   [8]  E1 05 00 00 00 00 0A 06
  can1       0A4   [8]  00 00 00 00 00 00 00 00
  can1       0A3   [8]  EB 01 E6 01 EB 01 EB 01
  can1       0C0   [8]  00 00 00 00 01 00 00 00
  can1  0000020B   [4]  00 00 00 00
  can1       0C0   [8]  00 00 00 00 01 00 00 00
  can1  00000B02   [8]  8B 09 00 98 00 00 00 00
  can1       0AD   [8]  00 00 00 00 00 00 00 00
  can1  0000020B   [4]  C1 56 66 66
  can1       0AC   [8]  00 00 00 00 20 10 0D 00
  can1       0AB   [8]  00 00 00 00 00 00 00 00
  can1       0A8   [8]  47 00 49 22 F2 FF FF FF
  can1       0A7   [8]  0E 15 00 00 83 FF 3E FF
  can1  00000B02   [8]  8B 09 00 AA 00 00 00 00
  can1       0A6   [8]  FB FF F8 FF FE FF 00 00
  can1       0A5   [8]  E2 05 00 00 00 00 0A 06
  can1       0A4   [8]  00 00 00 00 00 00 00 00
  can1       0A3   [8]  EB 01 E6 01 EB 01 EB 01
  can1       0C0   [8]  00 00 00 00 01 00 00 00
  can1  0000020B   [4]  00 00 00 00
  can1       0C0   [8]  00 00 00 00 01 00 00 00
  can1       0AD   [8]  00 00 00 00 00 00 00 00
  can1       0AC   [8]  00 00 00 00 23 10 0D 00
  can1  00000B02   [8]  8B 09 00 8B 00 00 00 00
  can1       0AB   [8]  00 00 00 00 00 00 00 00
  can1  0000020B   [4]  40 9F FF F6
  can1       0A8   [8]  47 00 49 22 F8 FF 01 00
  can1       0A7   [8]  1B 15 00 00 8B FF 43 FF
  can1       0A6   [8]  FB FF FE FF FB FF 00 00
  can1       0A5   [8]  E1 05 00 00 00 00 0A 06
  can1       0A4   [8]  00 00 00 00 00 00 00 00
  can1       0A3   [8]  EB 01 E6 01 EB 01 EB 01
  can1  00000B02   [8]  8B 09 00 91 00 00 00 00
  can1       0C0   [8]  00 00 00 00 01 00 00 00
  can1  0000020B   [4]  00 00 00 00
  can1       0C0   [8]  00 00 00 00 01 00 00 00
  can1       0AD   [8]  00 00 00 00 00 00 00 00
  can1       0AC   [8]  00 00 00 00 26 10 0D 00
  can1  00000B02   [8]  8B 09 00 3F 00 00 00 00
  can1       0AB   [8]  00 00 00 00 00 00 00 00
  can1  0000020B   [4]  43 1A 99 9A
  can1       0A8   [8]  47 00 49 22 06 00 00 00
  can1       0A7   [8]  0E 15 00 00 7A FF 3A FF
  can1       0A6   [8]  02 00 02 00 06 00 00 00
  can1       0A5   [8]  E2 05 00 00 00 00 0A 06
  can1       0A4   [8]  00 00 00 00 00 00 00 00
  can1       0A3   [8]  EB 01 E6 01 EB 01 EC 01
  can1  00000B02   [8]  8B 09 00 7E 00 00 00 00
  can1       0C0   [8]  00 00 00 00 01 00 00 00
  can1  0000020B   [4]  41 E7 33 33
  can1       0C0   [8]  00 00 00 00 01 00 00 00
  can1       0AD   [8]  00 00 00 00 00 00 00 00
  can1       0AC   [8]  00 00 00 00 29 10 0D 00
  can1  00000B02   [8]  8B 09 00 A6 00 00 00 00
  can1       0AB   [8]  00 00 00 00 00 00 00 00
  can1  0000020B   [4]  3F 80 00 00
  can1       0A8   [8]  47 00 49 22 03 00 01 00
  can1       0A7   [8]  14 15 00 00 6E FF 35 FF
  can1       0A6   [8]  00 00 02 00 FE FF 00 00
  can1       0A5   [8]  E0 05 00 00 00 00 0B 06
  can1       0A4   [8]  00 00 00 00 00 00 00 00
  can1  00000B02   [8]  8B 09 00 7D 00 00 00 00
  can1       0A3   [8]  EC 01 E6 01 EB 01 EC 01
  can1       0C0   [8]  00 00 00 00 01 00 00 00
  can1  0000020B   [4]  00 00 00 00
  can1       0AD   [8]  00 00 00 00 00 00 00 00
  can1       0AC   [8]  00 00 00 00 2C 10 0D 00
  can1  00000B02   [8]  8B 09 00 3B 00 00 00 00
  can1       0AB   [8]  00 00 00 00 00 00 00 00
  can1       0A8   [8]  47 00 49 22 06 00 00 00
  can1       0A7   [8]  1D 15 00 00 71 FF 4F FF
  can1       0A6   [8]  05 00 05 00 00 00 00 00
  can1       0A5   [8]  E2 05 00 00 00 00 0A 06
  can1       0A4   [8]  00 00 00 00 00 00 00 00
  can1       0A3   [8]  EC 01 E6 01 EB 01 EC 01
  can1       0C0   [8]  00 00 00 00 01 00 00 00
  can1  0000020B   [4]  BE 4C CC CD
  can1       0C0   [8]  00 00 00 00 01 00 00 00
  can1  00000B02   [8]  8B 09 00 3A 00 00 00 00
  can1       0AD   [8]  00 00 00 00 00 00 00 00
  can1  0000020B   [4]  3F 00 00 00
  can1       0AC   [8]  00 00 FD FF 2F 10 0D 00
  can1       0AB   [8]  00 00 00 00 00 00 00 00
  can1       0A8   [8]  47 00 49 22 F6 FF FA FF
  can1       0A7   [8]  1D 15 00 00 7A FF 6E FF
  can1  00000B02   [8]  8B 09 00 A4 00 00 00 00
  can1       0A6   [8]  00 00 F6 FF 2C 00 00 00
  can1       0A5   [8]  E1 05 00 00 00 00 0A 06
  can1       0A4   [8]  00 00 00 00 00 00 00 00
  can1       0A3   [8]  EC 01 E6 01 EB 01 EC 01
  can1       0C0   [8]  00 00 00 00 01 00 00 00
  can1  0000020B   [4]  00 00 00 00
  can1       0C0   [8]  00 00 00 00 01 00 00 00
  can1  00000B02   [8]  8B 09 00 39 00 00 00 00
  can1       0AD   [8]  00 00 00 00 00 00 00 00
  can1  0000020B   [4]  00 00 00 00
  can1       0AC   [8]  00 00 00 00 32 10 0D 00
  can1       0AB   [8]  00 00 00 00 00 00 00 00
  can1       0A8   [8]  47 00 49 22 09 00 FF FF
  can1       0A7   [8]  17 15 00 00 76 FF 54 FF
  can1       0A6   [8]  05 00 03 00 00 00 00 00
  can1       0A5   [8]  E0 05 FF FF 00 00 0A 06
  can1  00000B02   [8]  8B 09 00 9C 00 00 00 00
  can1       0A4   [8]  00 00 00 00 00 00 00 00
  can1       0A3   [8]  EC 01 E7 01 EB 01 EC 01
  can1       0C0   [8]  00 00 00 00 01 00 00 00
  can1  0000020B   [4]  00 00 00 00
  can1       0C0   [8]  00 00 00 00 01 00 00 00
  can1  00000B02   [8]  8B 09 00 AA 00 00 00 00
  can1       0AD   [8]  00 00 00 00 00 00 00 00
  can1  0000020B   [4]  00 00 00 00
  can1       0AC   [8]  00 00 00 00 35 10 0D 00
  can1       0AB   [8]  00 00 00 00 00 00 00 00
  can1       0A8   [8]  47 00 49 22 FB FF 00 00
  can1       0A7   [8]  13 15 00 00 7A FF 46 FF
  can1       0A6   [8]  FE FF FE FF F8 FF 00 00
  can1       0A5   [8]  E2 05 00 00 00 00 0A 06
  can1  00000B02   [8]  8B 09 00 38 00 00 00 00
  can1       0A4   [8]  00 00 00 00 00 00 00 00
  can1       0A3   [8]  EC 01 E6 01 EB 01 EC 01
  can1       0C0   [8]  00 00 00 00 01 00 00 00
  can1  0000020B   [4]  44 06 E0 00
  can1       0C0   [8]  00 00 00 00 01 00 00 00
  can1       0AD   [8]  00 00 00 00 00 00 00 00
  can1       0AE   [8]  10 00 24 18 10 05 13 20
  can1       0AC   [8]  00 00 00 00 38 10 0D 00
  can1       0AB   [8]  00 00 00 00 00 00 00 00
  can1       0AA   [8]  04 00 09 04 01 00 00 00
  can1       0A9   [8]  96 00 FA 00 FA 01 79 04
  can1       0A8   [8]  47 00 49 22 06 00 00 00
  can1       0A7   [8]  1D 15 00 00 71 FF 58 FF
  can1       0A6   [8]  02 00 03 00 04 00 00 00
  can1       0A5   [8]  E1 05 FF FF 00 00 0A 06
  can1       0A4   [8]  00 00 00 00 00 00 00 00
  can1       0A3   [8]  EC 01 E6 01 EB 01 EB 01
  can1       0A2   [8]  F0 D8 F0 D8 21 01 00 00
  can1       0A1   [8]  B1 01 E9 08 E7 08 F0 D8
  can1       0A0   [8]  7C 01 7C 01 81 01 93 01
  can1  00000B02   [8]  8B 09 00 3F 00 00 00 00
  can1       0C0   [8]  00 00 00 00 01 00 00 00
  can1  0000020B   [4]  43 1A 99 9A
  can1       0AD   [8]  00 00 00 00 00 00 00 00
  can1       0AC   [8]  00 00 00 00 3B 10 0D 00
  can1       0AB   [8]  00 00 00 00 00 00 00 00
  can1       0A8   [8]  47 00 49 22 04 00 FF FF
  can1       0A7   [8]  17 15 00 00 7F FF 4F FF
  can1  00000B02   [8]  8B 09 00 7E 00 00 00 00
  can1       0A6   [8]  02 00 00 00 01 00 00 00
  can1       0A5   [8]  E1 05 00 00 00 00 0A 06
  can1       0A4   [8]  00 00 00 00 00 00 00 00
  can1       0A3   [8]  EC 01 E6 01 EB 01 EB 01
  can1       0C0   [8]  00 00 00 00 01 00 00 00
  can1  0000020B   [4]  41 E7 33 33
  can1       0C0   [8]  00 00 00 00 01 00 00 00
  can1  00000B02   [8]  8B 09 00 A6 00 00 00 00
  can1       0AD   [8]  00 00 00 00 00 00 00 00
  can1  0000020B   [4]  3F 80 00 00
  can1       0AC   [8]  00 00 00 00 3E 10 0D 00
  can1       0AB   [8]  00 00 00 00 00 00 00 00
  can1       0A8   [8]  47 00 49 22 01 00 00 00
  can1       0A7   [8]  11 15 00 00 71 FF 43 FF
  can1  00000B02   [8]  8B 09 00 7D 00 00 00 00
  can1       0A6   [8]  00 00 00 00 00 00 00 00
  can1       0A5   [8]  E2 05 00 00 00 00 0A 06
  can1       0A4   [8]  00 00 00 00 00 00 00 00
  can1       0A3   [8]  EC 01 E6 01 EB 01 EC 01
  can1       0C0   [8]  00 00 00 00 01 00 00 00
  can1  0000020B   [4]  00 00 00 00
  can1       0C0   [8]  00 00 00 00 01 00 00 00
  can1       0AD   [8]  00 00 00 00 00 00 00 00
  can1       0AC   [8]  00 00 00 00 41 10 0D 00
  can1       0AB   [8]  00 00 00 00 00 00 00 00
  can1       0A8   [8]  47 00 49 22 F8 FF FF FF
  can1       0A7   [8]  14 15 00 00 7A FF 3E FF
  can1       0A6   [8]  FE FF FB FF F8 FF 00 00
  can1       0A5   [8]  E2 05 00 00 00 00 0A 06
  can1       0A4   [8]  00 00 00 00 00 00 00 00
  can1       0A3   [8]  EC 01 E6 01 EB 01 EB 01
  can1       0C0   [8]  00 00 00 00 01 00 00 00
  can1       0C0   [8]  00 00 00 00 01 00 00 00
  can1       0AD   [8]  00 00 00 00 00 00 00 00
  can1       0AC   [8]  00 00 01 00 44 10 0D 00
  can1       0AB   [8]  00 00 00 00 00 00 00 00
  can1       0A8   [8]  47 00 49 22 F3 FF 02 00
  can1       0A7   [8]  19 15 00 00 87 FF 4F FF
  can1       0A6   [8]  F8 FF FB FF FB FF 00 00
  can1       0A5   [8]  E3 05 00 00 00 00 0A 06
  can1       0A4   [8]  00 00 00 00 00 00 00 00
  can1       0A3   [8]  EC 01 E6 01 EB 01 EB 01
  can1       0C0   [8]  00 00 00 00 01 00 00 00
  can1       0C0   [8]  00 00 00 00 01 00 00 00
  can1       0AD   [8]  00 00 00 00 00 00 00 00
  can1       0AC   [8]  00 00 00 00 47 10 0D 00
  can1       0AB   [8]  00 00 00 00 00 00 00 00
  can1       0A8   [8]  47 00 49 22 0C 00 00 00
  can1       0A7   [8]  17 15 00 00 71 FF 43 FF
  can1       0A6   [8]  05 00 06 00 FB FF 00 00
  can1       0A5   [8]  E2 05 00 00 00 00 0A 06
  can1       0A4   [8]  00 00 00 00 00 00 00 00
  can1       0A3   [8]  EC 01 E7 01 EB 01 EB 01
  can1       0C0   [8]  00 00 00 00 01 00 00 00
  can1       0AD   [8]  00 00 00 00 00 00 00 00
  can1       0AC   [8]  00 00 00 00 4A 10 0D 00
  can1  00000B02   [8]  8B 09 00 AA 00 00 00 00
  can1       0AB   [8]  00 00 00 00 00 00 00 00
  can1       0A8   [8]  47 00 49 22 E4 FF FB FF
  can1       0A7   [8]  14 15 00 00 87 FF 4F FF
  can1       0A6   [8]  F8 FF ED FF 20 00 00 00
  can1       0A5   [8]  E3 05 00 00 00 00 0A 06
  can1       0A4   [8]  00 00 00 00 00 00 00 00
  can1       0A3   [8]  EC 01 E6 01 EC 01 EB 01
  can1       0C0   [8]  00 00 00 00 01 00 00 00
  can1  0000020B   [4]  00 00 00 00
  can1       0C0   [8]  00 00 00 00 01 00 00 00
  can1       0AD   [8]  00 00 00 00 00 00 00 00
  can1       0AC   [8]  00 00 01 00 4D 10 0D 00
  can1       0AB   [8]  00 00 00 00 00 00 00 00
  can1       0A8   [8]  47 00 49 22 17 00 FD FF
  can1       0A7   [8]  14 15 00 00 69 FF 54 FF
  can1       0A6   [8]  0D 00 09 00 06 00 00 00
  can1       0A5   [8]  E3 05 00 00 00 00 0A 06
  can1       0A4   [8]  00 00 00 00 00 00 00 00
  can1       0A3   [8]  EC 01 E6 01 EB 01 EC 01
  can1       0C0   [8]  00 00 00 00 01 00 00 00
  can1       0C0   [8]  00 00 00 00 01 00 00 00
  can1  00000B02   [8]  8B 09 00 3F 00 00 00 00
  can1  0000020B   [4]  43 1A 99 9A
  can1       0AD   [8]  00 00 00 00 00 00 00 00
  can1       0AC   [8]  00 00 00 00 50 10 0D 00
  can1       0AB   [8]  00 00 00 00 00 00 00 00
  can1       0A8   [8]  47 00 49 22 FB FF 00 00
  can1       0A7   [8]  11 15 00 00 83 FF 3E FF
  can1  00000B02   [8]  8B 09 00 7E 00 00 00 00
  can1       0A6   [8]  FD FF FE FF 00 00 00 00
  can1       0A5   [8]  E2 05 00 00 00 00 0A 06
  can1       0A4   [8]  00 00 00 00 00 00 00 00
  can1       0A3   [8]  EB 01 E6 01 EB 01 EC 01
  can1       0C0   [8]  00 00 00 00 01 00 00 00
  can1  0000020B   [4]  41 E7 33 33
  can1       0C0   [8]  00 00 00 00 01 00 00 00
  can1  00000B02   [8]  8B 09 00 A6 00 00 00 00
  can1       0AD   [8]  00 00 00 00 00 00 00 00
  can1  0000020B   [4]  3F 80 00 00
  can1       0AC   [8]  00 00 00 00 53 10 0D 00
  can1       0AB   [8]  00 00 00 00 00 00 00 00
  can1       0A8   [8]  47 00 49 22 F8 FF FF FF
  can1       0A7   [8]  14 15 00 00 7F FF 46 FF
  can1       0A6   [8]  FD FF FB FF F8 FF 00 00
  can1       0A5   [8]  E2 05 00 00 00 00 0A 06
  can1  00000B02   [8]  8B 09 00 7D 00 00 00 00
  can1       0A4   [8]  00 00 00 00 00 00 00 00
  can1       0A3   [8]  EB 01 E6 01 EC 01 EC 01
  can1       0C0   [8]  00 00 00 00 01 00 00 00
  can1  0000020B   [4]  00 00 00 00
  can1       0C0   [8]  00 00 00 00 01 00 00 00
  can1       0AD   [8]  00 00 00 00 00 00 00 00
  can1       0AC   [8]  00 00 00 00 56 10 0D 00
  can1       0AB   [8]  00 00 00 00 00 00 00 00
  can1       0A8   [8]  47 00 49 22 F8 FF FF FF
  can1       0A7   [8]  11 15 00 00 76 FF 46 FF
  can1       0A6   [8]  FD FF FB FF FF FF 00 00
  can1       0A5   [8]  E1 05 FF FF 00 00 0A 06
  can1       0A4   [8]  00 00 00 00 00 00 00 00
  can1       0A3   [8]  EC 01 E7 01 EC 01 EB 01
  can1       0C0   [8]  00 00 00 00 01 00 00 00
  can1       0AD   [8]  00 00 00 00 00 00 00 00
  can1       0AE   [8]  10 00 24 18 10 05 13 20
  can1       0AC   [8]  00 00 00 00 59 10 0D 00
  can1       0AB   [8]  00 00 00 00 00 00 00 00
  can1       0AA   [8]  04 00 09 04 01 00 00 00
  can1       0A9   [8]  96 00 FA 00 FC 01 7A 04
  can1       0A8   [8]  47 00 49 22 12 00 00 00
  can1       0A7   [8]  11 15 00 00 6E FF 46 FF
  can1       0A6   [8]  08 00 09 00 03 00 00 00
  can1       0A5   [8]  E2 05 00 00 00 00 0A 06
  can1       0A4   [8]  00 00 00 00 00 00 00 00
  can1       0A3   [8]  EB 01 E7 01 EB 01 EB 01
  can1       0A2   [8]  F0 D8 F0 D8 17 01 00 00
  can1       0A1   [8]  B2 01 E9 08 E7 08 F0 D8
  can1       0A0   [8]  7D 01 7C 01 80 01 94 01
  can1       0C0   [8]  00 00 00 00 01 00 00 00
  can1       0C0   [8]  00 00 00 00 01 00 00 00
  can1       0AD   [8]  00 00 00 00 00 00 00 00
  can1       0AC   [8]  00 00 01 00 5C 10 0D 00
  can1       0AB   [8]  00 00 00 00 00 00 00 00
  can1       0A8   [8]  47 00 49 22 03 00 02 00
  can1       0A7   [8]  19 15 00 00 76 FF 4F FF
  can1       0A6   [8]  00 00 03 00 0A 00 00 00
  can1       0A5   [8]  E2 05 00 00 00 00 0A 06
  can1       0A4   [8]  00 00 00 00 00 00 00 00
  can1       0A3   [8]  EB 01 E6 01 EB 01 EB 01
  can1       0C0   [8]  00 00 00 00 01 00 00 00
  can1       0C0   [8]  00 00 00 00 01 00 00 00
  can1  00000B02   [8]  8B 09 00 AA 00 00 00 00
  can1  0000020B   [4]  00 00 00 00
  can1       0AD   [8]  00 00 00 00 00 00 00 00
  can1       0AC   [8]  00 00 00 00 5F 10 0D 00
  can1       0AB   [8]  00 00 00 00 00 00 00 00
  can1       0A8   [8]  47 00 49 22 F3 FF FF FF
  can1       0A7   [8]  19 15 00 00 7A FF 43 FF
  can1       0A6   [8]  FB FF F9 FF F3 FF 00 00
  can1       0A5   [8]  E2 05 00 00 00 00 0A 06
  can1       0A4   [8]  00 00 00 00 00 00 00 00
  can1       0A3   [8]  EB 01 E6 01 EB 01 EB 01
  can1       0C0   [8]  00 00 00 00 01 00 00 00
  can1       0C0   [8]  00 00 00 00 01 00 00 00
  can1       0AD   [8]  00 00 00 00 00 00 00 00
  can1       0AC   [8]  00 00 00 00 62 10 0D 00
  can1       0AB   [8]  00 00 00 00 00 00 00 00
  can1       0A8   [8]  47 00 49 22 07 00 00 00
  can1       0A7   [8]  0C 15 00 00 6E FF 3A FF
  can1       0A6   [8]  02 00 03 00 03 00 00 00
  can1       0A5   [8]  E1 05 FF FF 00 00 0A 06
  can1       0A4   [8]  00 00 00 00 00 00 00 00
  can1       0A3   [8]  EB 01 E6 01 EC 01 EB 01
  can1       0C0   [8]  00 00 00 00 01 00 00 00
  can1  00000B02   [8]  8B 09 00 3F 00 00 00 00
  can1  0000020B   [4]  43 1A 99 9A
  can1       0C0   [8]  00 00 00 00 01 00 00 00
  can1  00000B02   [8]  8B 09 00 7E 00 00 00 00
  can1       0AD   [8]  00 00 00 00 00 00 00 00
  can1  0000020B   [4]  41 DF 33 33
  can1       0AC   [8]  00 00 00 00 65 10 0D 00
  can1       0AB   [8]  00 00 00 00 00 00 00 00
  can1       0A8   [8]  47 00 49 22 00 00 00 00
  can1       0A7   [8]  1B 15 00 00 6E FF 4B FF
  can1       0A6   [8]  00 00 00 00 00 00 00 00
  can1       0A5   [8]  E1 05 00 00 00 00 09 06
  can1  00000B02   [8]  8B 09 00 A6 00 00 00 00
  can1       0A4   [8]  00 00 00 00 00 00 00 00
  can1       0A3   [8]  EC 01 E7 01 EC 01 EB 01
  can1       0C0   [8]  00 00 00 00 01 00 00 00
  can1  0000020B   [4]  3F 80 00 00
  can1       0AD   [8]  00 00 00 00 00 00 00 00
  can1       0AC   [8]  00 00 00 00 68 10 0D 00
  can1  00000B02   [8]  8B 09 00 7D 00 00 00 00
  can1       0AB   [8]  00 00 00 00 00 00 00 00
  can1       0A8   [8]  47 00 49 22 0C 00 00 00
  can1       0A7   [8]  11 15 00 00 76 FF 46 FF
  can1       0A6   [8]  05 00 06 00 06 00 00 00
  can1       0A5   [8]  E2 05 00 00 00 00 09 06
  can1       0A4   [8]  00 00 00 00 00 00 00 00
  can1       0A3   [8]  EC 01 E7 01 EB 01 EC 01
  can1       0C0   [8]  00 00 00 00 01 00 00 00
  can1  0000020B   [4]  00 00 00 00
  can1       0C0   [8]  00 00 00 00 01 00 00 00
  can1       0AD   [8]  00 00 00 00 00 00 00 00
  can1       0AC   [8]  00 00 00 00 6B 10 0D 00
  can1       0AB   [8]  00 00 00 00 00 00 00 00
  can1       0A8   [8]  47 00 49 22 03 00 FF FF
  can1       0A7   [8]  21 15 00 00 83 FF 4B FF
  can1       0A6   [8]  05 00 00 00 00 00 00 00
  can1       0A5   [8]  E2 05 00 00 00 00 09 06
  can1       0A4   [8]  00 00 00 00 00 00 00 00
  can1       0A3   [8]  EC 01 E6 01 EB 01 EC 01
  can1       0C0   [8]  00 00 00 00 01 00 00 00
  can1       0C0   [8]  00 00 00 00 01 00 00 00
  can1       0AD   [8]  00 00 00 00 00 00 00 00
  can1       0AC   [8]  00 00 00 00 6E 10 0D 00
  can1       0AB   [8]  00 00 00 00 00 00 00 00
  can1       0A8   [8]  47 00 49 22 FE FF FF FF
  can1       0A7   [8]  1F 15 00 00 58 FF 8B FF
  can1       0A6   [8]  00 00 FE FF 00 00 00 00
  can1       0A5   [8]  E2 05 00 00 00 00 09 06
  can1       0A4   [8]  00 00 00 00 00 00 00 00
  can1       0A3   [8]  EC 01 E6 01 EB 01 EB 01
  can1       0C0   [8]  00 00 00 00 01 00 00 00
  can1       0C0   [8]  00 00 00 00 01 00 00 00
  can1       0AD   [8]  00 00 00 00 00 00 00 00
  can1       0AC   [8]  00 00 00 00 71 10 0D 00
  can1       0AB   [8]  00 00 00 00 00 00 00 00
  can1       0A8   [8]  47 00 49 22 FC FF 00 00
  can1       0A7   [8]  14 15 00 00 83 FF 46 FF
  can1       0A6   [8]  FE FF FE FF FC FF 00 00
  can1       0A5   [8]  E1 05 00 00 00 00 0A 06
  can1       0A4   [8]  00 00 00 00 00 00 00 00
  can1       0A3   [8]  EC 01 E6 01 EB 01 EB 01
  can1       0C0   [8]  00 00 00 00 01 00 00 00
  can1       0C0   [8]  00 00 00 00 01 00 00 00
  can1       0AD   [8]  00 00 00 00 00 00 00 00
  can1       0AC   [8]  00 00 00 00 74 10 0D 00
  can1  00000B02   [8]  8B 09 00 AA 00 00 00 00
  can1       0AB   [8]  00 00 00 00 00 00 00 00
  can1  0000020B   [4]  00 00 00 00
  can1       0A8   [8]  47 00 49 22 0A 00 FF FF
  can1       0A7   [8]  1D 15 00 00 7A FF 4F FF
  can1       0A6   [8]  05 00 04 00 01 00 00 00
  can1       0A5   [8]  E2 05 00 00 00 00 09 06
  can1       0A4   [8]  00 00 00 00 00 00 00 00
  can1       0A3   [8]  EC 01 E6 01 EB 01 EB 01
  can1       0C0   [8]  00 00 00 00 01 00 00 00
  can1       0AD   [8]  00 00 00 00 00 00 00 00
  can1       0AC   [8]  00 00 FE FF 77 10 0D 00
  can1       0AB   [8]  00 00 00 00 00 00 00 00
  can1       0A8   [8]  47 00 49 22 03 00 FC FF
  can1       0A7   [8]  13 15 00 00 71 FF 3E FF
  can1       0A6   [8]  05 00 FE FF FB FF 00 00
  can1       0A5   [8]  E3 05 00 00 00 00 0A 06
  can1       0A4   [8]  00 00 00 00 00 00 00 00
  can1       0A3   [8]  EC 01 E5 01 EB 01 EB 01
  can1  00000B02   [8]  8B 09 00 3F 00 00 00 00
  can1       0C0   [8]  00 00 00 00 01 00 00 00
  can1  0000020B   [4]  43 1A 80 00
  can1       0C0   [8]  00 00 00 00 01 00 00 00
  can1  00000B02   [8]  8B 09 00 7E 00 00 00 00
  can1       0AD   [8]  00 00 00 00 00 00 00 00
  can1  0000020B   [4]  41 DF 33 33
  can1       0AE   [8]  10 00 24 18 10 05 13 20
  can1       0AC   [8]  00 00 FF FF 7A 10 0D 00
  can1       0AB   [8]  00 00 00 00 00 00 00 00
  can1       0AA   [8]  04 00 09 04 01 00 00 00
  can1  00000B02   [8]  8B 09 00 A6 00 00 00 00
  can1       0A9   [8]  96 00 FA 00 FB 01 7A 04
  can1       0A8   [8]  47 00 49 22 FE FF 02 00
  can1       0A7   [8]  19 15 00 00 7F FF 46 FF
  can1       0A6   [8]  FD FF 00 00 00 00 00 00
  can1       0A5   [8]  E1 05 00 00 00 00 09 06
  can1       0A4   [8]  00 00 00 00 00 00 00 00
  can1       0A3   [8]  EC 01 E6 01 EB 01 EB 01
  can1       0A2   [8]  F0 D8 F0 D8 28 01 00 00
  can1       0A1   [8]  B2 01 E9 08 E7 08 F0 D8
  can1       0A0   [8]  7D 01 7C 01 81 01 92 01
  can1       0C0   [8]  00 00 00 00 01 00 00 00
  can1       0AD   [8]  00 00 00 00 00 00 00 00
  can1  0000020B   [4]  3F 80 00 00
  can1       0AC   [8]  00 00 00 00 7D 10 0D 00
  can1       0AB   [8]  00 00 00 00 00 00 00 00
  can1       0A8   [8]  47 00 49 22 06 00 00 00
  can1       0A7   [8]  17 15 00 00 76 FF 46 FF
  can1       0A6   [8]  02 00 03 00 03 00 00 00
  can1       0A5   [8]  E0 05 FF FF FF FF 09 06
  can1  00000B02   [8]  8B 09 00 7D 00 00 00 00
  can1       0A4   [8]  00 00 00 00 00 00 00 00
  can1       0A3   [8]  EC 01 E6 01 EC 01 EB 01
  can1       0C0   [8]  00 00 00 00 01 00 00 00
  can1       0C0   [8]  00 00 00 00 01 00 00 00
  can1  0000020B   [4]  00 00 00 00
  can1       0C0   [8]  00 00 00 00 01 00 00 00
  can1       0AD   [8]  00 00 00 00 00 00 00 00
  can1       0AC   [8]  00 00 00 00 80 10 0D 00
  can1       0AB   [8]  00 00 00 00 00 00 00 00
  can1       0A8   [8]  47 00 49 22 09 00 FF FF
  can1       0A7   [8]  14 15 00 00 7A FF 46 FF
  can1       0A6   [8]  00 00 FB FF 00 00 00 00
  can1       0A5   [8]  E2 05 00 00 00 00 09 06
  can1       0A4   [8]  00 00 00 00 00 00 00 00
  can1       0A3   [8]  EC 01 E6 01 EC 01 EB 01
  can1       0C0   [8]  00 00 00 00 01 00 00 00
  can1       0C0   [8]  00 00 00 00 01 00 00 00
  can1       0AD   [8]  00 00 00 00 00 00 00 00
  can1       0AC   [8]  00 00 00 00 83 10 0D 00
  can1       0AB   [8]  00 00 00 00 00 00 00 00
  can1       0A8   [8]  47 00 49 22 FB FF 00 00
  can1       0A7   [8]  14 15 00 00 76 FF 35 FF
  can1       0A6   [8]  FE FF FE FF 00 00 00 00
  can1       0A5   [8]  E1 05 00 00 00 00 09 06
  can1       0A4   [8]  00 00 00 00 00 00 00 00
  can1       0A3   [8]  EC 01 E6 01 EC 01 EC 01
  can1       0C0   [8]  00 00 00 00 01 00 00 00
  can1       0AD   [8]  00 00 00 00 00 00 00 00
  can1       0AC   [8]  00 00 00 00 86 10 0D 00
  can1       0AB   [8]  00 00 00 00 00 00 00 00
  can1       0A8   [8]  47 00 49 22 04 00 FF FF
  can1       0A7   [8]  17 15 00 00 76 FF 46 FF
  can1       0A6   [8]  02 00 00 00 FB FF 00 00
  can1       0A5   [8]  E0 05 FF FF 00 00 09 06
  can1       0A4   [8]  00 00 00 00 00 00 00 00
  can1       0A3   [8]  EC 01 E6 01 EC 01 EB 01
  can1       0C0   [8]  00 00 00 00 01 00 00 00
  can1       0C0   [8]  00 00 00 00 01 00 00 00
  can1  00000B02   [8]  8B 09 00 AA 00 00 00 00
  can1  0000020B   [4]  00 00 00 00
  can1       0AD   [8]  00 00 00 00 00 00 00 00
  can1       0AC   [8]  00 00 00 00 89 10 0D 00
  can1       0AB   [8]  00 00 00 00 00 00 00 00
  can1       0A8   [8]  47 00 49 22 04 00 FF FF
  can1       0A7   [8]  14 15 00 00 7A FF 46 FF
  can1       0A6   [8]  02 00 00 00 03 00 00 00
  can1       0A5   [8]  E1 05 00 00 00 00 09 06
  can1       0A4   [8]  00 00 00 00 00 00 00 00
  can1       0A3   [8]  EC 01 E6 01 EC 01 EB 01
  can1       0C0   [8]  00 00 00 00 01 00 00 00
  can1       0C0   [8]  00 00 00 00 01 00 00 00
  can1       0AD   [8]  00 00 00 00 00 00 00 00
  can1       0AC   [8]  00 00 00 00 8C 10 0D 00
  can1       0AB   [8]  00 00 00 00 00 00 00 00
  can1       0A8   [8]  47 00 49 22 0A 00 FF FF
  can1       0A7   [8]  13 15 00 00 76 FF 3E FF
  can1       0A6   [8]  05 00 03 00 00 00 00 00
  can1       0A5   [8]  E1 05 00 00 00 00 09 06
  can1       0A4   [8]  00 00 00 00 00 00 00 00
  can1       0A3   [8]  EC 01 E6 01 EC 01 EB 01
  can1       0C0   [8]  00 00 00 00 01 00 00 00
  can1  00000B02   [8]  8B 09 00 3F 00 00 00 00
  can1  0000020B   [4]  43 1A 80 00
  can1       0C0   [8]  00 00 00 00 01 00 00 00
  can1  00000B02   [8]  8B 09 00 7E 00 00 00 00
  can1       0AD   [8]  00 00 00 00 00 00 00 00
  can1  0000020B   [4]  41 EC CC CD
  can1       0AC   [8]  00 00 01 00 8F 10 0D 00
  can1       0AB   [8]  00 00 00 00 00 00 00 00
  can1       0A8   [8]  47 00 49 22 FF FF 01 00
  can1       0A7   [8]  13 15 00 00 7F FF 4F FF
  can1       0A6   [8]  FE FF 00 00 00 00 00 00
  can1       0A5   [8]  E2 05 00 00 00 00 0A 06
  can1  00000B02   [8]  8B 09 00 A6 00 00 00 00
  can1       0A4   [8]  00 00 00 00 00 00 00 00
  can1       0A3   [8]  EB 01 E6 01 EB 01 EB 01
  can1       0C0   [8]  00 00 00 00 01 00 00 00
  can1  0000020B   [4]  3F 80 00 00
  can1       0C0   [8]  00 00 00 00 01 00 00 00
  can1  00000B02   [8]  8B 09 00 7D 00 00 00 00
  can1       0AD   [8]  00 00 00 00 00 00 00 00
  can1  0000020B   [4]  00 00 00 00
  can1       0AC   [8]  00 00 02 00 92 10 0D 00
  can1       0AB   [8]  00 00 00 00 00 00 00 00
  can1       0A8   [8]  47 00 49 22 04 00 FB FF
  can1       0A7   [8]  14 15 00 00 71 FF 4B FF
  can1       0A6   [8]  05 00 FE FF 1B 00 00 00
  can1       0A5   [8]  E2 05 00 00 00 00 09 06
  can1       0A4   [8]  00 00 00 00 00 00 00 00
  can1       0A3   [8]  EB 01 E7 01 EB 01 EB 01
  can1       0C0   [8]  00 00 00 00 01 00 00 00
  can1       0AD   [8]  00 00 00 00 00 00 00 00
  can1       0AC   [8]  00 00 03 00 95 10 0D 00
  can1       0AB   [8]  00 00 00 00 00 00 00 00
  can1       0A8   [8]  47 00 49 22 F3 FF 05 00
  can1       0A7   [8]  17 15 00 00 7F FF 3A FF
  can1       0A6   [8]  F5 FF FE FF F8 FF 00 00
  can1       0A5   [8]  E1 05 FF FF 00 00 0A 06
  can1       0A4   [8]  00 00 00 00 00 00 00 00
  can1       0A3   [8]  EC 01 E7 01 EB 01 EB 01
  can1       0C0   [8]  00 00 00 00 01 00 00 00
  can1       0C0   [8]  00 00 00 00 01 00 00 00
  can1       0AD   [8]  00 00 00 00 00 00 00 00
  can1       0AC   [8]  00 00 01 00 98 10 0D 00
  can1       0AB   [8]  00 00 00 00 00 00 00 00
  can1       0A8   [8]  47 00 49 22 02 00 01 00
  can1       0A7   [8]  14 15 00 00 76 FF 46 FF
  can1       0A6   [8]  00 00 02 00 03 00 00 00
  can1       0A5   [8]  E1 05 00 00 00 00 0A 06
  can1       0A4   [8]  00 00 00 00 00 00 00 00
  can1       0A3   [8]  EC 01 E7 01 EC 01 EB 01
  can1       0C0   [8]  00 00 00 00 01 00 00 00
  can1       0C0   [8]  00 00 00 00 01 00 00 00
  can1       0AD   [8]  00 00 00 00 00 00 00 00
  can1       0AE   [8]  10 00 24 18 10 05 13 20
  can1       0AC   [8]  00 00 00 00 9B 10 0D 00
  can1       0AB   [8]  00 00 00 00 00 00 00 00
  can1       0AA   [8]  04 00 09 04 01 00 00 00
  can1       0A9   [8]  96 00 FA 00 FB 01 77 04
  can1       0A8   [8]  47 00 49 22 FE FF FF FF
  can1       0A7   [8]  0E 15 00 00 76 FF 4B FF
  can1       0A6   [8]  00 00 FE FF FE FF 00 00
  can1       0A5   [8]  E2 05 00 00 00 00 0A 06
  can1       0A4   [8]  00 00 00 00 00 00 00 00
  can1       0A3   [8]  EC 01 E6 01 EC 01 EB 01
  can1       0A2   [8]  F0 D8 F0 D8 21 01 00 00
  can1  00000B02   [8]  8B 09 00 AA 00 00 00 00
  can1       0A1   [8]  B1 01 E9 08 E7 08 F0 D8
  can1       0A0   [8]  7C 01 7C 01 81 01 93 01
  can1       0C0   [8]  00 00 00 00 01 00 00 00
  can1  0000020B   [4]  00 00 00 00
  can1       0C0   [8]  00 00 00 00 01 00 00 00
  can1       0AD   [8]  00 00 00 00 00 00 00 00
  can1       0AC   [8]  00 00 00 00 9E 10 0D 00
  can1       0AB   [8]  00 00 00 00 00 00 00 00
  can1       0A8   [8]  47 00 49 22 F8 FF FF FF
  can1       0A7   [8]  11 15 00 00 76 FF 46 FF
  can1       0A6   [8]  FE FF FB FF FB FF 00 00
  can1       0A5   [8]  E0 05 FF FF 00 00 0A 06
  can1       0A4   [8]  00 00 00 00 00 00 00 00
  can1       0A3   [8]  EC 01 E6 01 EB 01 EB 01
  can1       0C0   [8]  00 00 00 00 01 00 00 00
  can1       0C0   [8]  00 00 00 00 01 00 00 00
  can1       0AD   [8]  00 00 00 00 00 00 00 00
  can1       0AC   [8]  00 00 01 00 A1 10 0D 00
  can1       0AB   [8]  00 00 00 00 00 00 00 00
  can1       0A8   [8]  47 00 49 22 03 00 01 00
  can1       0A7   [8]  14 15 00 00 76 FF 4B FF
  can1       0A6   [8]  00 00 03 00 FB FF 00 00
  can1       0A5   [8]  E0 05 00 00 00 00 0A 06
  can1       0A4   [8]  00 00 00 00 00 00 00 00
  can1       0A3   [8]  EC 01 E6 01 EB 01 EB 01
  can1  00000B02   [8]  8B 09 00 3F 00 00 00 00
  can1       0C0   [8]  00 00 00 00 01 00 00 00
  can1  0000020B   [4]  43 1A 99 9A
  can1  00000B02   [8]  8B 09 00 7E 00 00 00 00
  can1  0000020B   [4]  41 E7 33 33
  can1       0AD   [8]  00 00 00 00 00 00 00 00
  can1       0AC   [8]  00 00 01 00 A4 10 0D 00
  can1       0AB   [8]  00 00 00 00 00 00 00 00
  can1  00000B02   [8]  8B 09 00 A6 00 00 00 00
  can1       0A8   [8]  47 00 49 22 F8 FF 01 00
  can1       0A7   [8]  17 15 00 00 87 FF 4B FF
  can1       0A6   [8]  FB FF FE FF FE FF 00 00
  can1       0A5   [8]  E1 05 00 00 00 00 0A 06
  can1       0A4   [8]  00 00 00 00 00 00 00 00
  can1       0A3   [8]  EC 01 E6 01 EB 01 EB 01
  can1       0C0   [8]  00 00 00 00 01 00 00 00
  can1  0000020B   [4]  3F 80 00 00
  can1       0C0   [8]  00 00 00 00 01 00 00 00
  can1  00000B02   [8]  8B 09 00 7D 00 00 00 00
  can1       0AD   [8]  00 00 00 00 00 00 00 00
  can1  0000020B   [4]  00 00 00 00
  can1       0AC   [8]  00 00 00 00 A7 10 0D 00
  can1       0AB   [8]  00 00 00 00 00 00 00 00
  can1       0A8   [8]  47 00 49 22 09 00 FE FF
  can1       0A7   [8]  13 15 00 00 7A FF 3A FF
  can1       0A6   [8]  05 00 03 00 02 00 00 00
  can1       0A5   [8]  E1 05 00 00 00 00 0A 06
  can1  00000B02   [8]  80 09 00 00 00 00 00 00
  can1       0A4   [8]  00 00 00 00 00 00 00 00
  can1       0A3   [8]  EC 01 E5 01 EB 01 EB 01
  can1       0C0   [8]  00 00 00 00 01 00 00 00
  can1  0000020B   [1]  06
  can1       0C0   [8]  00 00 00 00 01 00 00 00
  can1       0AD   [8]  00 00 00 00 00 00 00 00
  can1       0AC   [8]  00 00 00 00 AA 10 0D 00
  can1       0AB   [8]  00 00 00 00 00 00 00 00
  can1       0A8   [8]  47 00 49 22 F0 FF 00 00
  can1       0A7   [8]  19 15 00 00 7F FF 4F FF
  can1       0A6   [8]  F8 FF F8 FF FB FF 00 00
  can1       0A5   [8]  E1 05 00 00 00 00 0A 06
  can1       0A4   [8]  00 00 00 00 00 00 00 00
  can1       0A3   [8]  EC 01 E6 01 EC 01 EB 01
  can1       0C0   [8]  00 00 00 00 01 00 00 00
  can1       0C0   [8]  00 00 00 00 01 00 00 00
  can1       0AD   [8]  00 00 00 00 00 00 00 00
  can1       0AC   [8]  00 00 01 00 AD 10 0D 00
  can1       0AB   [8]  00 00 00 00 00 00 00 00
  can1       0A8   [8]  47 00 49 22 FF FF 01 00
  can1       0A7   [8]  1B 15 00 00 7A FF 46 FF
  can1       0A6   [8]  FE FF 00 00 00 00 00 00
  can1       0A5   [8]  E1 05 00 00 00 00 0A 06
  can1       0A4   [8]  00 00 00 00 00 00 00 00
  can1       0A3   [8]  EC 01 E6 01 EB 01 EC 01
  can1       0C0   [8]  00 00 00 00 01 00 00 00
  can1       0C0   [8]  00 00 00 00 01 00 00 00
  can1       0AD   [8]  00 00 00 00 00 00 00 00
  can1       0AC   [8]  00 00 FF FF B0 10 0D 00
  can1       0AB   [8]  00 00 00 00 00 00 00 00
  can1       0A8   [8]  47 00 49 22 01 00 FE FF
  can1       0A7   [8]  14 15 00 00 94 FF 3E FF
  can1       0A6   [8]  02 00 FE FF 00 00 00 00
  can1       0A5   [8]  E2 05 00 00 00 00 0A 06
  can1       0A4   [8]  00 00 00 00 00 00 00 00
  can1       0A3   [8]  EC 01 E6 01 EB 01 EC 01
  can1       0C0   [8]  00 00 00 00 01 00 00 00
  can1  00000B02   [8]  8B 09 00 AA 00 00 00 00
  can1  0000020B   [4]  00 00 00 00
  can1       0AD   [8]  00 00 00 00 00 00 00 00
  can1       0AC   [8]  00 00 00 00 B3 10 0D 00
  can1       0AB   [8]  00 00 00 00 00 00 00 00
  can1       0A8   [8]  47 00 49 22 F6 FF 00 00
  can1       0A7   [8]  19 15 00 00 71 FF 43 FF
  can1       0A6   [8]  FB FF FB FF FE FF 00 00
  can1       0A5   [8]  DE 05 FE FF FF FF 0A 06
  can1       0A4   [8]  00 00 00 00 00 00 00 00
  can1       0A3   [8]  EC 01 E6 01 EB 01 EB 01
  can1       0C0   [8]  00 00 00 00 01 00 00 00
  can1       0C0   [8]  00 00 00 00 01 00 00 00
  can1       0AD   [8]  00 00 00 00 00 00 00 00
  can1       0AC   [8]  00 00 00 00 B6 10 0D 00
  can1       0AB   [8]  00 00 00 00 00 00 00 00
  can1       0A8   [8]  47 00 49 22 FB FF FE FF
  can1       0A7   [8]  13 15 00 00 83 FF 4B FF
  can1       0A6   [8]  00 00 FB FF FE FF 00 00
  can1       0A5   [8]  E2 05 00 00 00 00 0A 06
  can1       0A4   [8]  00 00 00 00 00 00 00 00
  can1       0A3   [8]  EC 01 E6 01 EB 01 EB 01
  can1  00000B02   [8]  8B 09 00 3F 00 00 00 00
  can1       0C0   [8]  00 00 00 00 01 00 00 00
  can1  0000020B   [4]  43 1A 99 9A
  can1       0C0   [8]  00 00 00 00 01 00 00 00
  can1  00000B02   [8]  8B 09 00 7E 00 00 00 00
  can1       0AD   [8]  00 00 00 00 00 00 00 00
  can1  0000020B   [4]  41 E7 33 33
  can1       0AC   [8]  00 00 00 00 B9 10 0D 00
  can1       0AB   [8]  00 00 00 00 00 00 00 00
  can1       0A8   [8]  47 00 49 22 FC FF 00 00
  can1       0A7   [8]  0E 15 00 00 6E FF 3E FF
  can1       0A6   [8]  FE FF FE FF FE FF 00 00
  can1       0A5   [8]  E1 05 00 00 00 00 0A 06
  can1  00000B02   [8]  8B 09 00 A6 00 00 00 00
  can1       0A4   [8]  00 00 00 00 00 00 00 00
  can1       0A3   [8]  EC 01 E6 01 EC 01 EB 01
  can1       0C0   [8]  00 00 00 00 01 00 00 00
  can1  0000020B   [4]  3F 80 00 00
  can1       0C0   [8]  00 00 00 00 01 00 00 00
  can1       0AD   [8]  00 00 00 00 00 00 00 00
  can1       0AE   [8]  10 00 24 18 10 05 13 20
  can1  00000B02   [8]  8B 09 00 7D 00 00 00 00
  can1       0AC   [8]  00 00 FF FF BC 10 0D 00
  can1  0000020B   [4]  00 00 00 00
  can1       0AB   [8]  00 00 00 00 00 00 00 00
  can1       0AA   [8]  04 00 09 04 01 00 00 00
  can1       0A9   [8]  96 00 FA 00 FA 01 7A 04
  can1       0A8   [8]  47 00 49 22 00 00 FE FF
  can1       0A7   [8]  19 15 00 00 7A FF 4B FF
  can1       0A6   [8]  00 00 FB FF FE FF 00 00
  can1       0A5   [8]  E1 05 00 00 00 00 0A 06
  can1       0A4   [8]  00 00 00 00 00 00 00 00
  can1       0A3   [8]  EC 01 E6 01 EC 01 EB 01
  can1       0A2   [8]  F0 D8 F0 D8 21 01 00 00
  can1       0A1   [8]  B0 01 E9 08 E7 08 F0 D8
  can1       0A0   [8]  7C 01 7C 01 81 01 94 01
  can1       0C0   [8]  00 00 00 00 01 00 00 00
  can1       0C0   [8]  00 00 00 00 01 00 00 00
  can1       0AD   [8]  00 00 00 00 00 00 00 00
  can1       0AC   [8]  00 00 01 00 BF 10 0D 00
  can1       0AB   [8]  00 00 00 00 00 00 00 00
  can1       0A8   [8]  47 00 49 22 FE FF 02 00
  can1       0A7   [8]  17 15 00 00 71 FF 43 FF
  can1       0A6   [8]  FE FF 00 00 00 00 00 00
  can1       0A5   [8]  E1 05 00 00 00 00 0A 06
  can1       0A4   [8]  00 00 00 00 00 00 00 00
  can1       0A3   [8]  EC 01 E6 01 EB 01 EB 01
  can1       0C0   [8]  00 00 00 00 01 00 00 00
  can1       0AD   [8]  00 00 00 00 00 00 00 00
  can1       0AC   [8]  00 00 FE FF C2 10 0D 00
  can1       0AB   [8]  00 00 00 00 00 00 00 00
  can1       0A8   [8]  47 00 49 22 FE FF FB FF
  can1       0A7   [8]  0E 15 00 00 6E FF 46 FF
  can1       0A6   [8]  02 00 FB FF 03 00 00 00
  can1       0A5   [8]  E0 05 FF FF 00 00 0A 06
  can1       0A4   [8]  00 00 00 00 00 00 00 00
  can1       0A3   [8]  EC 01 E6 01 EC 01 EB 01
  can1       0C0   [8]  00 00 00 00 01 00 00 00
  can1       0C0   [8]  00 00 00 00 01 00 00 00
  can1       0AD   [8]  00 00 00 00 00 00 00 00
  can1       0AC   [8]  00 00 00 00 C5 10 0D 00
  can1       0AB   [8]  00 00 00 00 00 00 00 00
  can1       0A8   [8]  47 00 49 22 09 00 FF FF
  can1       0A7   [8]  19 15 00 00 71 FF 4F FF
  can1       0A6   [8]  05 00 03 00 03 00 00 00
  can1       0A5   [8]  E1 05 00 00 00 00 0A 06
  can1       0A4   [8]  00 00 00 00 00 00 00 00
  can1       0A3   [8]  EB 01 E6 01 EC 01 EB 01
  can1  00000B02   [8]  8B 09 00 AA 00 00 00 00
  can1       0C0   [8]  00 00 00 00 01 00 00 00
  can1  0000020B   [4]  00 00 00 00
  can1       0C0   [8]  00 00 00 00 01 00 00 00
  can1       0AD   [8]  00 00 00 00 00 00 00 00
  can1       0AC   [8]  00 00 00 00 C8 10 0D 00
  can1       0AB   [8]  00 00 00 00 00 00 00 00
  can1       0A8   [8]  47 00 49 22 09 00 FF FF
  can1       0A7   [8]  13 15 00 00 6E FF 46 FF
  can1       0A6   [8]  05 00 03 00 00 00 00 00
  can1       0A5   [8]  E1 05 00 00 00 00 0A 06
  can1       0A4   [8]  00 00 00 00 00 00 00 00
  can1       0A3   [8]  EB 01 E6 01 EC 01 EB 01
  can1       0C0   [8]  00 00 00 00 01 00 00 00
  can1       0C0   [8]  00 00 00 00 01 00 00 00
  can1       0AD   [8]  00 00 00 00 00 00 00 00
  can1       0AC   [8]  00 00 00 00 CB 10 0D 00
  can1       0AB   [8]  00 00 00 00 00 00 00 00
  can1       0A8   [8]  47 00 49 22 F3 FF FF FF
  can1       0A7   [8]  17 15 00 00 7F FF 3E FF
  can1       0A6   [8]  FA FF F8 FF F8 FF 00 00
  can1       0A5   [8]  E1 05 00 00 00 00 0A 06
  can1       0A4   [8]  00 00 00 00 00 00 00 00
  can1       0A3   [8]  EC 01 E6 01 EC 01 EB 01
  can1  00000B02   [8]  8B 09 00 3F 00 00 00 00
  can1       0C0   [8]  00 00 00 00 01 00 00 00
  can1  0000020B   [4]  43 1A 99 9A
  can1       0C0   [8]  00 00 00 00 01 00 00 00
  can1  00000B02   [8]  8B 09 00 7E 00 00 00 00
  can1       0AD   [8]  00 00 00 00 00 00 00 00
  can1  0000020B   [4]  41 E7 33 33
  can1       0AC   [8]  00 00 01 00 CE 10 0D 00
  can1       0AB   [8]  00 00 00 00 00 00 00 00
  can1       0A8   [8]  47 00 49 22 00 00 03 00
  can1       0A7   [8]  1B 15 00 00 7A FF 46 FF
  can1       0A6   [8]  FE FF 03 00 04 00 00 00
  can1       0A5   [8]  E1 05 00 00 00 00 0A 06
  can1  00000B02   [8]  8B 09 00 A6 00 00 00 00
  can1       0A4   [8]  00 00 00 00 00 00 00 00
  can1       0A3   [8]  EC 01 E6 01 EC 01 EB 01
  can1       0C0   [8]  00 00 00 00 01 00 00 00
  can1  0000020B   [4]  3F 80 00 00
  can1  00000B02   [8]  8B 09 00 7D 00 00 00 00
  can1       0AD   [8]  00 00 00 00 00 00 00 00
  can1       0AC   [8]  00 00 00 00 D1 10 0D 00
  can1       0AB   [8]  00 00 00 00 00 00 00 00
  can1       0A8   [8]  47 00 49 22 03 00 FF FF
  can1       0A7   [8]  17 15 00 00 6E FF 46 FF
  can1       0A6   [8]  02 00 00 00 00 00 00 00
  can1       0A5   [8]  E1 05 00 00 00 00 0A 06
  can1       0A4   [8]  00 00 00 00 00 00 00 00
  can1       0A3   [8]  EC 01 E7 01 EC 01 EB 01
  can1       0C0   [8]  00 00 00 00 01 00 00 00
  can1  0000020B   [4]  00 00 00 00
  can1       0C0   [8]  00 00 00 00 01 00 00 00
  can1       0AD   [8]  00 00 00 00 00 00 00 00
  can1       0AC   [8]  00 00 00 00 D4 10 0D 00
  can1       0AB   [8]  00 00 00 00 00 00 00 00
  can1       0A8   [8]  47 00 49 22 F3 FF FF FF
  can1       0A7   [8]  13 15 00 00 8B FF 4B FF
  can1       0A6   [8]  05 00 F8 FF F6 FF 00 00
  can1       0A5   [8]  E2 05 00 00 00 00 0A 06
  can1       0A4   [8]  00 00 00 00 00 00 00 00
  can1       0A3   [8]  EC 01 E7 01 EB 01 EB 01
  can1       0C0   [8]  00 00 00 00 01 00 00 00
  can1       0C0   [8]  00 00 00 00 01 00 00 00
  can1       0AD   [8]  00 00 00 00 00 00 00 00
  can1       0AC   [8]  00 00 02 00 D7 10 0D 00
  can1       0AB   [8]  00 00 00 00 00 00 00 00
  can1       0A8   [8]  47 00 49 22 04 00 05 00
  can1       0A7   [8]  1D 15 00 00 7A FF 58 FF
  can1       0A6   [8]  FE FF 06 00 01 00 00 00
  can1       0A5   [8]  E1 05 00 00 00 00 0A 06
  can1       0A4   [8]  00 00 00 00 00 00 00 00
  can1       0A3   [8]  EC 01 E6 01 EB 01 EC 01
  can1       0C0   [8]  00 00 00 00 01 00 00 00
  can1       0C0   [8]  00 00 00 00 01 00 00 00
  can1       0AD   [8]  00 00 00 00 00 00 00 00
  can1       0AC   [8]  00 00 00 00 DA 10 0D 00
  can1       0AB   [8]  00 00 00 00 00 00 00 00
  can1       0A8   [8]  47 00 49 22 FF FF FF FF
  can1       0A7   [8]  0A 15 00 00 7A FF 46 FF
  can1       0A6   [8]  00 00 FE FF FE FF 00 00
  can1       0A5   [8]  E1 05 00 00 00 00 0A 06
  can1       0A4   [8]  00 00 00 00 00 00 00 00
  can1       0A3   [8]  EB 01 E5 01 EB 01 EC 01
  can1       0C0   [8]  00 00 00 00 01 00 00 00
  can1  00000B02   [8]  8B 09 00 AA 00 00 00 00
  can1  0000020B   [4]  00 00 00 00
  can1       0C0   [8]  00 00 00 00 01 00 00 00
  can1       0AD   [8]  00 00 00 00 00 00 00 00
  can1       0AE   [8]  10 00 24 18 10 05 13 20
  can1       0AC   [8]  00 00 00 00 DD 10 0D 00
  can1       0AB   [8]  00 00 00 00 00 00 00 00
  can1       0AA   [8]  04 00 09 04 01 00 00 00
  can1       0A9   [8]  96 00 FA 00 FB 01 79 04
  can1       0A8   [8]  47 00 49 22 10 00 01 00
  can1       0A7   [8]  11 15 00 00 76 FF 46 FF
  can1       0A6   [8]  05 00 09 00 03 00 00 00
  can1       0A5   [8]  E1 05 00 00 00 00 0A 06
  can1       0A4   [8]  00 00 00 00 00 00 00 00
  can1       0A3   [8]  EB 01 E5 01 EB 01 EB 01
  can1       0A2   [8]  F0 D8 F0 D8 29 01 00 00
  can1       0A1   [8]  B4 01 E9 08 E7 08 F0 D8
  can1       0A0   [8]  7D 01 7C 01 81 01 95 01
  can1       0C0   [8]  00 00 00 00 01 00 00 00
  can1       0AD   [8]  00 00 00 00 00 00 00 00
  can1       0AC   [8]  00 00 00 00 E0 10 0D 00
  can1       0AB   [8]  00 00 00 00 00 00 00 00
  can1       0A8   [8]  47 00 49 22 01 00 00 00
  can1  00000B02   [8]  8B 09 00 3F 00 00 00 00
  can1       0A7   [8]  13 15 00 00 AD FF 4B FF
  can1       0A6   [8]  00 00 00 00 00 00 00 00
  can1       0A5   [8]  E1 05 00 00 00 00 0A 06
  can1       0A4   [8]  00 00 00 00 00 00 00 00
  can1       0A3   [8]  ED 01 E5 01 EB 01 EB 01
  can1       0C0   [8]  00 00 00 00 01 00 00 00
  can1  0000020B   [4]  43 1A 99 9A
  can1       0C0   [8]  00 00 00 00 01 00 00 00
  can1  00000B02   [8]  8B 09 00 7E 00 00 00 00
  can1       0AD   [8]  00 00 00 00 00 00 00 00
  can1  0000020B   [4]  41 ED 99 9A
  can1       0AC   [8]  00 00 00 00 E3 10 0D 00
  can1       0AB   [8]  00 00 00 00 00 00 00 00
  can1       0A8   [8]  47 00 49 22 FF FF FF FF
  can1  00000B02   [8]  8B 09 00 A6 00 00 00 00
  can1       0A7   [8]  0E 15 00 00 7F FF 3E FF
  can1       0A6   [8]  00 00 FE FF F6 FF 00 00
  can1       0A5   [8]  E2 05 00 00 00 00 0A 06
  can1       0A4   [8]  00 00 00 00 00 00 00 00
  can1       0A3   [8]  ED 01 E5 01 EB 01 EC 01
  can1       0C0   [8]  00 00 00 00 01 00 00 00
  can1  0000020B   [4]  3F 80 00 00
  can1       0C0   [8]  00 00 00 00 01 00 00 00
  can1  00000B02   [8]  8B 09 00 7D 00 00 00 00
  can1       0AD   [8]  00 00 00 00 00 00 00 00
  can1  0000020B   [4]  00 00 00 00
  can1       0AC   [8]  00 00 00 00 E6 10 0D 00
  can1       0AB   [8]  00 00 00 00 00 00 00 00
  can1       0A8   [8]  47 00 49 22 03 00 FF FF
  can1       0A7   [8]  14 15 00 00 71 FF 46 FF
  can1       0A6   [8]  02 00 00 00 01 00 00 00
  can1       0A5   [8]  E2 05 00 00 00 00 0A 06
  can1       0A4   [8]  00 00 00 00 00 00 00 00
  can1       0A3   [8]  EC 01 E6 01 EB 01 EB 01
  can1       0C0   [8]  00 00 00 00 01 00 00 00
  can1       0C0   [8]  00 00 00 00 01 00 00 00
  can1       0AD   [8]  00 00 00 00 00 00 00 00
  can1       0AC   [8]  00 00 00 00 E9 10 0D 00
  can1       0AB   [8]  00 00 00 00 00 00 00 00
  can1       0A8   [8]  47 00 49 22 0A 00 FF FF
  can1       0A7   [8]  14 15 00 00 71 FF 46 FF
  can1       0A6   [8]  00 00 03 00 04 00 00 00
  can1       0A5   [8]  E3 05 01 00 00 00 0A 06
  can1       0A4   [8]  00 00 00 00 00 00 00 00
  can1       0A3   [8]  EC 01 E6 01 EC 01 EB 01
  can1       0C0   [8]  00 00 00 00 01 00 00 00
  can1       0C0   [8]  00 00 00 00 01 00 00 00
  can1       0AD   [8]  00 00 00 00 00 00 00 00
  can1       0AC   [8]  00 00 00 00 EC 10 0D 00
  can1       0AB   [8]  00 00 00 00 00 00 00 00
  can1       0A8   [8]  47 00 49 22 FE FF FF FF
  can1       0A7   [8]  0C 15 00 00 71 FF 3E FF
  can1       0A6   [8]  00 00 FE FF 04 00 00 00
  can1       0A5   [8]  E0 05 FF FF 00 00 0A 06
  can1       0A4   [8]  00 00 00 00 00 00 00 00
  can1       0A3   [8]  EC 01 E6 01 EC 01 EB 01
  can1       0C0   [8]  00 00 00 00 01 00 00 00
  can1       0AD   [8]  00 00 00 00 00 00 00 00
  can1       0AC   [8]  00 00 00 00 EF 10 0D 00
  can1       0AB   [8]  00 00 00 00 00 00 00 00
  can1       0A8   [8]  47 00 49 22 06 00 00 00
  can1       0A7   [8]  19 15 00 00 7A FF 46 FF
  can1       0A6   [8]  02 00 03 00 FF FF 00 00
  can1       0A5   [8]  E1 05 00 00 00 00 0A 06
  can1  00000B02   [8]  8B 09 00 AA 00 00 00 00
  can1       0A4   [8]  00 00 00 00 00 00 00 00
  can1       0A3   [8]  EC 01 E6 01 EC 01 EB 01
  can1       0C0   [8]  00 00 00 00 01 00 00 00
  can1  0000020B   [4]  00 00 00 00
  can1       0C0   [8]  00 00 00 00 01 00 00 00
  can1       0AD   [8]  00 00 00 00 00 00 00 00
  can1       0AC   [8]  00 00 01 00 F2 10 0D 00
  can1       0AB   [8]  00 00 00 00 00 00 00 00
  can1       0A8   [8]  47 00 49 22 FF FF 01 00
  can1       0A7   [8]  14 15 00 00 7A FF 43 FF
  can1       0A6   [8]  FE FF 00 00 FF FF 00 00
  can1       0A5   [8]  E1 05 00 00 00 00 0A 06
  can1       0A4   [8]  00 00 00 00 00 00 00 00
  can1       0A3   [8]  EC 01 E6 01 EC 01 EC 01
  can1       0C0   [8]  00 00 00 00 01 00 00 00
  can1       0C0   [8]  00 00 00 00 01 00 00 00
  can1       0AD   [8]  00 00 00 00 00 00 00 00
  can1       0AC   [8]  00 00 00 00 F5 10 0D 00
  can1       0AB   [8]  00 00 00 00 00 00 00 00
  can1       0A8   [8]  47 00 49 22 04 00 01 00
  can1       0A7   [8]  11 15 00 00 7A FF 43 FF
  can1       0A6   [8]  00 00 03 00 04 00 00 00
  can1  00000B02   [8]  8B 09 00 3F 00 00 00 00
  can1       0A5   [8]  E1 05 00 00 00 00 0A 06
  can1       0A4   [8]  00 00 00 00 00 00 00 00
  can1       0A3   [8]  EB 01 E6 01 EC 01 EC 01
  can1       0C0   [8]  00 00 00 00 01 00 00 00
  can1  0000020B   [4]  43 1A 99 9A
  can1       0C0   [8]  00 00 00 00 01 00 00 00
  can1  00000B02   [8]  8B 09 00 7E 00 00 00 00
  can1       0AD   [8]  00 00 00 00 00 00 00 00
  can1  0000020B   [4]  41 ED 99 9A
  can1       0AC   [8]  00 00 01 00 F8 10 0D 00
  can1       0AB   [8]  00 00 00 00 00 00 00 00
  can1       0A8   [8]  47 00 49 22 04 00 01 00
  can1       0A7   [8]  1D 15 00 00 69 FF 4F FF
  can1       0A6   [8]  00 00 03 00 03 00 00 00
  can1       0A5   [8]  E1 05 00 00 00 00 0A 06
  can1  00000B02   [8]  8B 09 00 A6 00 00 00 00
  can1       0A4   [8]  00 00 00 00 00 00 00 00
  can1       0A3   [8]  EB 01 E6 01 EC 01 EB 01
  can1       0C0   [8]  00 00 00 00 01 00 00 00
  can1  0000020B   [4]  3F 80 00 00
  can1       0C0   [8]  00 00 00 00 01 00 00 00
  can1       0AD   [8]  00 00 00 00 00 00 00 00
  can1       0AC   [8]  00 00 00 00 FB 10 0D 00
  can1  00000B02   [8]  8B 09 00 7D 00 00 00 00
  can1       0AB   [8]  00 00 00 00 00 00 00 00
  can1  0000020B   [4]  00 00 00 00
  can1       0A8   [8]  47 00 49 22 04 00 FF FF
  can1       0A7   [8]  11 15 00 00 76 FF 43 FF
  can1       0A6   [8]  02 00 00 00 00 00 00 00
  can1       0A5   [8]  E2 05 00 00 00 00 0A 06
  can1       0A4   [8]  00 00 00 00 00 00 00 00
  can1       0A3   [8]  EC 01 E6 01 EC 01 EB 01
  can1       0C0   [8]  00 00 00 00 01 00 00 00
  can1       0AD   [8]  00 00 00 00 00 00 00 00
  can1       0AE   [8]  10 00 24 18 10 05 13 20
  can1       0AC   [8]  00 00 FF FF FE 10 0D 00
  can1       0AB   [8]  00 00 00 00 00 00 00 00
  can1       0AA   [8]  04 00 09 04 01 00 00 00
  can1       0A9   [8]  97 00 FA 00 FB 01 7A 04
  can1       0A8   [8]  47 00 49 22 06 00 FD FF
  can1       0A7   [8]  1F 15 00 00 7A FF 54 FF
  can1       0A6   [8]  05 00 00 00 04 00 00 00
  can1       0A5   [8]  E2 05 00 00 00 00 0A 06
  can1       0A4   [8]  00 00 00 00 00 00 00 00
  can1       0A3   [8]  EC 01 E6 01 EB 01 EB 01
  can1       0A2   [8]  F0 D8 F0 D8 1C 01 00 00
  can1       0A1   [8]  B2 01 E9 08 E7 08 F0 D8
  can1       0A0   [8]  7D 01 7D 01 81 01 94 01
  can1       0C0   [8]  00 00 00 00 01 00 00 00
  can1       0C0   [8]  00 00 00 00 01 00 00 00
  can1       0AD   [8]  00 00 00 00 00 00 00 00
  can1       0AC   [8]  00 00 00 00 01 11 0D 00
  can1       0AB   [8]  00 00 00 00 00 00 00 00
  can1       0A8   [8]  47 00 49 22 10 00 01 00
  can1       0A7   [8]  14 15 00 00 6E FF 46 FF
  can1       0A6   [8]  05 00 09 00 07 00 00 00
  can1       0A5   [8]  E2 05 00 00 00 00 0A 06
  can1       0A4   [8]  00 00 00 00 00 00 00 00
  can1       0A3   [8]  EC 01 E7 01 EB 01 EB 01
  can1       0C0   [8]  00 00 00 00 01 00 00 00
  can1       0C0   [8]  00 00 00 00 01 00 00 00
  can1       0AD   [8]  00 00 00 00 00 00 00 00
  can1       0AC   [8]  00 00 00 00 04 11 0D 00
  can1       0AB   [8]  00 00 00 00 00 00 00 00
  can1       0A8   [8]  47 00 49 22 0A 00 FF FF
  can1       0A7   [8]  14 15 00 00 69 FF 4B FF
  can1       0A6   [8]  05 00 03 00 0A 00 00 00
  can1       0A5   [8]  E3 05 00 00 00 00 0A 06
  can1  00000B02   [8]  8B 09 00 AA 00 00 00 00
  can1       0A4   [8]  00 00 00 00 00 00 00 00
  can1       0A3   [8]  EB 01 E7 01 EC 01 EB 01
  can1       0C0   [8]  00 00 00 00 01 00 00 00
  can1  0000020B   [4]  00 00 00 00
  can1       0C0   [8]  00 00 00 00 01 00 00 00
  can1       0AD   [8]  00 00 00 00 00 00 00 00
  can1       0AC   [8]  00 00 00 00 07 11 0D 00
  can1       0AB   [8]  00 00 00 00 00 00 00 00
  can1       0A8   [8]  47 00 49 22 FC FF 00 00
  can1       0A7   [8]  11 15 00 00 71 FF 43 FF
  can1       0A6   [8]  FE FF FE FF 01 00 00 00
  can1       0A5   [8]  E2 05 00 00 00 00 0A 06
  can1       0A4   [8]  00 00 00 00 00 00 00 00
  can1       0A3   [8]  EB 01 E6 01 EC 01 EB 01
  can1       0C0   [8]  00 00 00 00 01 00 00 00
  can1       0C0   [8]  00 00 00 00 01 00 00 00
  can1       0AD   [8]  00 00 00 00 00 00 00 00
  can1       0AC   [8]  00 00 FF FF 0A 11 0D 00
  can1  00000B02   [8]  8B 09 00 3F 00 00 00 00
  can1       0AB   [8]  00 00 00 00 00 00 00 00
  can1  0000020B   [4]  43 1A 99 9A
  can1       0A8   [8]  47 00 49 22 FF FF FF FF
  can1       0A7   [8]  13 15 00 00 76 FF 43 FF
  can1       0A6   [8]  00 00 FE FF 01 00 00 00
  can1       0A5   [8]  E2 05 00 00 00 00 0A 06
  can1       0A4   [8]  00 00 00 00 00 00 00 00
  can1       0A3   [8]  EC 01 E6 01 EC 01 EB 01
  can1  00000B02   [8]  8B 09 00 7E 00 00 00 00
  can1       0C0   [8]  00 00 00 00 01 00 00 00
  can1  0000020B   [4]  41 E3 33 33
  can1       0AD   [8]  00 00 00 00 00 00 00 00
  can1  00000B02   [8]  8B 09 00 A6 00 00 00 00
  can1       0AC   [8]  00 00 01 00 0D 11 0D 00
  can1       0AB   [8]  00 00 00 00 00 00 00 00
  can1       0A8   [8]  47 00 49 22 FF FF 01 00
  can1       0A7   [8]  13 15 00 00 7A FF 43 FF
  can1       0A6   [8]  FE FF 00 00 04 00 00 00
  can1       0A5   [8]  E1 05 FF FF 00 00 0A 06
  can1       0A4   [8]  00 00 00 00 00 00 00 00
  can1       0A3   [8]  EC 01 E6 01 EB 01 EB 01
  can1       0C0   [8]  00 00 00 00 01 00 00 00
  can1  0000020B   [4]  3F 80 00 00
  can1       0C0   [8]  00 00 00 00 01 00 00 00
  can1  00000B02   [8]  8B 09 00 7D 00 00 00 00
  can1  0000020B   [4]  BF 80 00 00
  can1       0AD   [8]  00 00 00 00 00 00 00 00
  can1       0AC   [8]  00 00 00 00 10 11 0D 00
  can1       0AB   [8]  00 00 00 00 00 00 00 00
  can1       0A8   [8]  47 00 49 22 FF FF FF FF
  can1       0A7   [8]  14 15 00 00 7A FF 35 FF
  can1       0A6   [8]  00 00 FE FF 01 00 00 00
  can1       0A5   [8]  E4 05 01 00 00 00 0A 06
  can1       0A4   [8]  00 00 00 00 00 00 00 00
  can1       0A3   [8]  EC 01 E5 01 EB 01 EB 01
  can1       0C0   [8]  00 00 00 00 01 00 00 00
  can1       0C0   [8]  00 00 00 00 01 00 00 00
  can1       0AD   [8]  00 00 00 00 00 00 00 00
  can1       0AC   [8]  00 00 00 00 13 11 0D 00
  can1       0AB   [8]  00 00 00 00 00 00 00 00
  can1       0A8   [8]  47 00 49 22 13 00 00 00
  can1       0A7   [8]  1B 15 00 00 8B FF 54 FF
  can1       0A6   [8]  00 00 00 00 FF FF 00 00
  can1       0A5   [8]  E1 05 00 00 00 00 0A 06
  can1       0A4   [8]  00 00 00 00 00 00 00 00
  can1       0A3   [8]  EC 01 E5 01 EC 01 EC 01
  can1       0C0   [8]  00 00 00 00 01 00 00 00
  can1       0C0   [8]  00 00 00 00 01 00 00 00
  can1       0AD   [8]  00 00 00 00 00 00 00 00
  can1       0AC   [8]  00 00 00 00 16 11 0D 00
  can1       0AB   [8]  00 00 00 00 00 00 00 00
  can1       0A8   [8]  47 00 49 22 0A 00 FF FF
  can1       0A7   [8]  0E 15 00 00 76 FF 46 FF
  can1       0A6   [8]  05 00 03 00 07 00 00 00
  can1       0A5   [8]  E2 05 00 00 00 00 0A 06
  can1       0A4   [8]  00 00 00 00 00 00 00 00
  can1       0A3   [8]  EC 01 E7 01 EC 01 EC 01
  can1       0C0   [8]  00 00 00 00 01 00 00 00
  can1       0C0   [8]  00 00 00 00 01 00 00 00
  can1       0AD   [8]  00 00 00 00 00 00 00 00
  can1       0AC   [8]  00 00 00 00 19 11 0D 00
  can1       0AB   [8]  00 00 00 00 00 00 00 00
  can1       0A8   [8]  47 00 49 22 01 00 00 00
  can1       0A7   [8]  1F 15 00 00 6E FF 46 FF
  can1       0A6   [8]  00 00 00 00 FF FF 00 00
  can1       0A5   [8]  E1 05 00 00 00 00 0A 06
  can1       0A4   [8]  00 00 00 00 00 00 00 00
  can1       0A3   [8]  EC 01 E7 01 EB 01 EC 01
  can1  00000B02   [8]  8B 09 00 AA 00 00 00 00
  can1       0C0   [8]  00 00 00 00 01 00 00 00
  can1  0000020B   [4]  00 00 00 00
  can1       0AD   [8]  00 00 00 00 00 00 00 00
  can1       0AC   [8]  00 00 03 00 1C 11 0D 00
  can1       0AB   [8]  00 00 00 00 00 00 00 00
  can1       0A8   [8]  47 00 49 22 F6 FF 07 00
  can1       0A7   [8]  0C 15 00 00 7A FF 3E FF
  can1       0A6   [8]  F5 FF 00 00 F6 FF 00 00
  can1       0A5   [8]  E2 05 00 00 00 00 0A 06
  can1       0A4   [8]  00 00 00 00 00 00 00 00
  can1       0A3   [8]  EC 01 E6 01 EB 01 EB 01
  can1       0C0   [8]  00 00 00 00 01 00 00 00
  can1       0C0   [8]  00 00 00 00 01 00 00 00
  can1  00000B02   [8]  88 09 00 64 00 00 00 00
  can1  0000020B   [1]  00
  can1       0AD   [8]  00 00 00 00 00 00 00 00
  can1       0AE   [8]  10 00 24 18 10 05 13 20
  can1       0AC   [8]  00 00 FF FF 1F 11 0D 00
  can1       0AB   [8]  00 00 00 00 00 00 00 00
  can1       0AA   [8]  04 00 09 04 01 00 00 00
  can1  00000B02   [8]  8B 09 00 3F 00 00 00 00
  can1       0A9   [8]  96 00 FA 00 FC 01 79 04
  can1       0A8   [8]  47 00 49 22 FB FF FE FF
  can1       0A7   [8]  14 15 00 00 7F FF 46 FF
  can1       0A6   [8]  00 00 FB FF FF FF 00 00
  can1       0A5   [8]  E1 05 00 00 00 00 0A 06
  can1       0A4   [8]  00 00 00 00 00 00 00 00
  can1       0A3   [8]  EC 01 E6 01 EC 01 EB 01
  can1       0A2   [8]  F0 D8 F0 D8 1A 01 00 00
  can1       0A1   [8]  B0 01 E9 08 E7 08 F0 D8
  can1       0A0   [8]  7C 01 7B 01 7F 01 92 01
  can1       0C0   [8]  00 00 00 00 01 00 00 00
  can1  0000020B   [4]  43 1A 99 9A
  can1       0C0   [8]  00 00 00 00 01 00 00 00
  can1       0AD   [8]  00 00 00 00 00 00 00 00
  can1       0AC   [8]  00 00 00 00 22 11 0D 00
  can1       0AB   [8]  00 00 00 00 00 00 00 00
  can1       0A8   [8]  47 00 49 22 00 00 00 00
  can1  00000B02   [8]  8B 09 00 7E 00 00 00 00
  can1       0A7   [8]  0A 15 00 00 7A FF 43 FF
  can1       0A6   [8]  00 00 00 00 FF FF 00 00
  can1       0A5   [8]  E1 05 00 00 00 00 0A 06
  can1       0A4   [8]  00 00 00 00 00 00 00 00
  can1       0A3   [8]  EC 01 E6 01 EC 01 EB 01
  can1       0C0   [8]  00 00 00 00 01 00 00 00
  can1  0000020B   [4]  41 E1 99 9A
  can1       0C0   [8]  00 00 00 00 01 00 00 00
  can1  00000B02   [8]  8B 09 00 A6 00 00 00 00
  can1       0AD   [8]  00 00 00 00 00 00 00 00
  can1  0000020B   [4]  3F 80 00 00
  can1       0AC   [8]  00 00 00 00 25 11 0D 00
  can1       0AB   [8]  00 00 00 00 00 00 00 00
  can1       0A8   [8]  47 00 49 22 F6 FF 00 00
  can1       0A7   [8]  0E 15 00 00 87 FF 46 FF
  can1       0A6   [8]  FB FF FB FF F6 FF 00 00
  can1       0A5   [8]  E0 05 FF FF 00 00 0A 06
  can1  00000B02   [8]  8B 09 00 7D 00 00 00 00
  can1       0A4   [8]  00 00 00 00 00 00 00 00
  can1       0A3   [8]  EB 01 E6 01 EC 01 EB 01
  can1       0C0   [8]  00 00 00 00 01 00 00 00
  can1  0000020B   [4]  00 00 00 00
  can1       0C0   [8]  00 00 00 00 01 00 00 00
  can1  00000B02   [8]  8B 09 00 37 00 00 00 00
  can1       0AD   [8]  00 00 00 00 00 00 00 00
  can1  0000020B   [4]  00 00 00 00
  can1       0AC   [8]  00 00 00 00 28 11 0D 00
  can1       0AB   [8]  00 00 00 00 00 00 00 00
  can1       0A8   [8]  47 00 49 22 00 00 00 00
  can1       0A7   [8]  14 15 00 00 83 FF 46 FF
  can1       0A6   [8]  00 00 00 00 F9 FF 00 00
  can1       0A5   [8]  E1 05 00 00 00 00 0A 06
  can1  00000B02   [8]  88 09 00 47 00 00 00 00
  can1       0A4   [8]  00 00 00 00 00 00 00 00
  can1       0A3   [8]  EB 01 E6 01 EB 01 EC 01
  can1       0C0   [8]  00 00 00 00 01 00 00 00
  can1  0000020B   [1]  00
  can1  00000B02   [8]  88 09 00 60 00 00 00 00
  can1       0AD   [8]  00 00 00 00 00 00 00 00
  can1       0AC   [8]  00 00 FF FF 2B 11 0D 00
  can1       0AB   [8]  00 00 00 00 00 00 00 00
  can1       0A8   [8]  47 00 49 22 06 00 FD FF
  can1       0A7   [8]  17 15 00 00 7A FF 60 FF
  can1       0A6   [8]  05 00 00 00 01 00 00 00
  can1       0A5   [8]  E2 05 00 00 00 00 0A 06
  can1       0A4   [8]  00 00 00 00 00 00 00 00
  can1       0A3   [8]  EC 01 E6 01 EB 01 EC 01
  can1       0C0   [8]  00 00 00 00 01 00 00 00
  can1  0000020B   [1]  09
  can1       0C0   [8]  00 00 00 00 01 00 00 00
  can1  00000B02   [8]  88 09 00 5F 00 00 00 00
  can1  0000020B   [1]  01
  can1       0AD   [8]  00 00 00 00 00 00 00 00
  can1       0AC   [8]  00 00 FF FF 2E 11 0D 00
  can1       0AB   [8]  00 00 00 00 00 00 00 00
  can1       0A8   [8]  47 00 49 22 0C 00 FD FF
  can1  00000B02   [8]  8B 09 00 A5 00 00 00 00
  can1       0A7   [8]  1B 15 00 00 7F FF 58 FF
  can1       0A6   [8]  08 00 03 00 04 00 00 00
  can1       0A5   [8]  E2 05 00 00 00 00 0A 06
  can1       0A4   [8]  00 00 00 00 00 00 00 00
  can1       0A3   [8]  EB 01 E6 01 EC 01 EB 01
  can1       0C0   [8]  00 00 00 00 01 00 00 00
  can1  0000020B   [4]  00 00 00 00
  can1       0C0   [8]  00 00 00 00 01 00 00 00
  can1  00000B02   [8]  8B 09 00 AA 00 00 00 00
  can1       0AD   [8]  00 00 00 00 00 00 00 00
  can1  0000020B   [4]  00 00 00 00
  can1       0AC   [8]  00 00 00 00 31 11 0D 00
  can1       0AB   [8]  00 00 00 00 00 00 00 00
  can1       0A8   [8]  47 00 49 22 09 00 FF FF
  can1       0A7   [8]  13 15 00 00 76 FF 4B FF
  can1       0A6   [8]  05 00 03 00 04 00 00 00
  can1       0A5   [8]  E1 05 00 00 00 00 09 06
  can1  00000B02   [8]  88 09 00 5E 00 00 00 00
  can1       0A4   [8]  00 00 00 00 00 00 00 00
  can1       0A3   [8]  EB 01 E6 01 EC 01 EB 01
  can1       0C0   [8]  00 00 00 00 01 00 00 00
  can1  0000020B   [1]  00
  can1       0C0   [8]  00 00 00 00 01 00 00 00
  can1  00000B02   [8]  8B 09 00 3F 00 00 00 00
  can1       0AD   [8]  00 00 00 00 00 00 00 00
  can1  0000020B   [4]  43 1A 80 00
  can1       0AC   [8]  00 00 FF FF 34 11 0D 00
  can1       0AB   [8]  00 00 00 00 00 00 00 00
  can1       0A8   [8]  47 00 49 22 00 00 FE FF
  can1       0A7   [8]  0E 15 00 00 71 FF 4B FF
  can1       0A6   [8]  02 00 FE FF 05 00 00 00
  can1       0A5   [8]  E1 05 00 00 00 00 09 06
  can1  00000B02   [8]  8B 09 00 7E 00 00 00 00
  can1       0A4   [8]  00 00 00 00 00 00 00 00
  can1       0A3   [8]  EB 01 E6 01 EC 01 EB 01
  can1       0C0   [8]  00 00 00 00 01 00 00 00
  can1  0000020B   [4]  41 E1 99 9A
  can1       0C0   [8]  00 00 00 00 01 00 00 00
  can1  00000B02   [8]  8B 09 00 A6 00 00 00 00
  can1       0AD   [8]  00 00 00 00 00 00 00 00
  can1  0000020B   [4]  3F 80 00 00
  can1       0AC   [8]  00 00 00 00 37 11 0D 00
  can1       0AB   [8]  00 00 00 00 00 00 00 00
  can1       0A8   [8]  47 00 49 22 FE FF FF FF
  can1       0A7   [8]  14 15 00 00 7F FF 3E FF
  can1       0A6   [8]  00 00 FE FF 00 00 00 00
  can1       0A5   [8]  E2 05 00 00 00 00 09 06
  can1  00000B02   [8]  8B 09 00 7D 00 00 00 00
  can1       0A4   [8]  00 00 00 00 00 00 00 00
  can1       0A3   [8]  EB 01 E6 01 EC 01 EB 01
  can1       0C0   [8]  00 00 00 00 01 00 00 00
  can1  0000020B   [4]  00 00 00 00
  can1  00000B02   [8]  88 09 00 5D 00 00 00 00
  can1       0AD   [8]  00 00 00 00 00 00 00 00
  can1       0AC   [8]  00 00 01 00 3A 11 0D 00
  can1       0AB   [8]  00 00 00 00 00 00 00 00
  can1       0A8   [8]  47 00 49 22 0D 00 02 00
  can1       0A7   [8]  17 15 00 00 71 FF 54 FF
  can1       0A6   [8]  02 00 09 00 02 00 00 00
  can1       0A5   [8]  E2 05 00 00 00 00 09 06
  can1       0A4   [8]  00 00 00 00 00 00 00 00
  can1       0A3   [8]  EC 01 E7 01 EC 01 EB 01
  can1       0C0   [8]  00 00 00 00 01 00 00 00
  can1  0000020B   [1]  00
  can1       0C0   [8]  00 00 00 00 01 00 00 00
  can1  00000B02   [8]  8B 09 00 69 00 00 00 00
  can1  0000020B   [4]  00 00 00 00
  can1       0AD   [8]  00 00 00 00 00 00 00 00
  can1       0AC   [8]  00 00 01 00 3D 11 0D 00
  can1       0AB   [8]  00 00 00 00 00 00 00 00
  can1       0A8   [8]  47 00 49 22 07 00 02 00
  can1  00000B02   [8]  88 09 00 40 00 00 00 00
  can1       0A7   [8]  17 15 00 00 7A FF 4F FF
  can1       0A6   [8]  00 00 06 00 02 00 00 00
  can1       0A5   [8]  E0 05 FF FF 00 00 09 06
  can1       0A4   [8]  00 00 00 00 00 00 00 00
  can1       0A3   [8]  EC 01 E7 01 EB 01 EB 01
  can1       0C0   [8]  00 00 00 00 01 00 00 00
  can1  0000020B   [1]  00
  can1       0C0   [8]  00 00 00 00 01 00 00 00
  can1  00000B02   [8]  88 09 00 63 00 00 00 00
  can1       0AD   [8]  00 00 00 00 00 00 00 00
  can1  0000020B   [1]  00
  can1       0AE   [8]  10 00 24 18 10 05 13 20
  can1       0AC   [8]  00 00 00 00 40 11 0D 00
  can1       0AB   [8]  00 00 00 00 00 00 00 00
  can1       0AA   [8]  04 00 09 04 01 00 00 00
  can1       0A9   [8]  96 00 FA 00 FC 01 7B 04
  can1       0A8   [8]  47 00 49 22 00 00 00 00
  can1  00000B02   [8]  88 09 00 62 00 00 00 00
  can1       0A7   [8]  17 15 00 00 7F FF 4F FF
  can1       0A6   [8]  00 00 00 00 04 00 00 00
  can1       0A5   [8]  E1 05 FF FF 00 00 09 06
  can1       0A4   [8]  00 00 00 00 00 00 00 00
  can1       0A3   [8]  EC 01 E6 01 EB 01 EB 01
  can1       0A2   [8]  F0 D8 F0 D8 1E 01 00 00
  can1       0A1   [8]  B0 01 E9 08 E7 08 F0 D8
  can1       0A0   [8]  7D 01 7B 01 80 01 92 01
  can1       0C0   [8]  00 00 00 00 01 00 00 00
  can1       0AD   [8]  00 00 00 00 00 00 00 00
  can1  0000020B   [1]  00
  can1       0AC   [8]  00 00 00 00 43 11 0D 00
  can1       0AB   [8]  00 00 00 00 00 00 00 00
  can1       0A8   [8]  47 00 49 22 00 00 00 00
  can1       0A7   [8]  17 15 00 00 7F FF 4B FF
  can1       0A6   [8]  00 00 00 00 FE FF 00 00
  can1       0A5   [8]  E1 05 00 00 00 00 0A 06
  can1       0A4   [8]  00 00 00 00 00 00 00 00
  can1  00000B02   [8]  8B 09 00 AA 00 00 00 00
  can1       0A3   [8]  EC 01 E6 01 EC 01 EB 01
  can1       0C0   [8]  00 00 00 00 01 00 00 00
  can1       0C0   [8]  00 00 00 00 01 00 00 00
  can1  0000020B   [4]  00 00 00 00
  can1       0C0   [8]  00 00 00 00 01 00 00 00
  can1  00000B02   [8]  88 09 00 A3 00 00 00 00
  can1       0AD   [8]  00 00 00 00 00 00 00 00
  can1  0000020B   [1]  00
  can1       0AC   [8]  00 00 00 00 46 11 0D 00
  can1       0AB   [8]  00 00 00 00 00 00 00 00
  can1       0A8   [8]  47 00 49 22 09 00 FE FF
  can1       0A7   [8]  0A 15 00 00 6E FF 43 FF
  can1       0A6   [8]  05 00 03 00 00 00 00 00
  can1       0A5   [8]  E2 05 00 00 00 00 0A 06
  can1  00000B02   [8]  8B 09 00 4E 00 00 00 00
  can1       0A4   [8]  00 00 00 00 00 00 00 00
  can1       0A3   [8]  EC 01 E6 01 EC 01 EC 01
  can1       0C0   [8]  00 00 00 00 01 00 00 00
  can1  0000020B   [4]  43 16 99 9A
  can1  00000B02   [8]  8B 09 00 3F 00 00 00 00
  can1       0AD   [8]  00 00 00 00 00 00 00 00
  can1       0AC   [8]  00 00 00 00 49 11 0D 00
  can1       0AB   [8]  00 00 00 00 00 00 00 00
  can1       0A8   [8]  47 00 49 22 F8 FF FF FF
  can1       0A7   [8]  0E 15 00 00 71 FF 31 FF
  can1       0A6   [8]  FE FF FB FF FE FF 00 00
  can1       0A5   [8]  E3 05 00 00 00 00 0A 06
  can1       0A4   [8]  00 00 00 00 00 00 00 00
  can1       0A3   [8]  EC 01 E6 01 EB 01 EC 01
  can1       0C0   [8]  00 00 00 00 01 00 00 00
  can1  0000020B   [4]  43 1A 99 9A
  can1       0C0   [8]  00 00 00 00 01 00 00 00
  can1  00000B02   [8]  8B 09 00 7E 00 00 00 00
  can1  0000020B   [4]  41 E4 CC CD
  can1       0AD   [8]  00 00 00 00 00 00 00 00
  can1       0AC   [8]  00 00 00 00 4C 11 0D 00
  can1       0AB   [8]  00 00 00 00 00 00 00 00
  can1       0A8   [8]  47 00 49 22 FE FF 01 00
  can1  00000B02   [8]  8B 09 00 A6 00 00 00 00
  can1       0A7   [8]  13 15 00 00 6E FF 46 FF
  can1       0A6   [8]  FE FF 00 00 FE FF 00 00
  can1       0A5   [8]  E1 05 00 00 00 00 0A 06
  can1       0A4   [8]  00 00 00 00 00 00 00 00
  can1       0A3   [8]  EC 01 E6 01 EB 01 EB 01
  can1       0C0   [8]  00 00 00 00 01 00 00 00
  can1  0000020B   [4]  3F 80 00 00
  can1       0C0   [8]  00 00 00 00 01 00 00 00
  can1  00000B02   [8]  8B 09 00 7D 00 00 00 00
  can1       0AD   [8]  00 00 00 00 00 00 00 00
  can1  0000020B   [4]  00 00 00 00
  can1       0AC   [8]  00 00 00 00 4F 11 0D 00
  can1       0AB   [8]  00 00 00 00 00 00 00 00
  can1       0A8   [8]  47 00 49 22 FB FF 00 00
  can1       0A7   [8]  0C 15 00 00 71 FF 3E FF
  can1       0A6   [8]  FE FF FE FF FB FF 00 00
  can1       0A5   [8]  E2 05 00 00 00 00 0A 06
  can1  00000B02   [8]  8B 09 00 A2 00 00 00 00
  can1       0A4   [8]  00 00 00 00 00 00 00 00
  can1       0A3   [8]  EC 01 E6 01 EC 01 EB 01
  can1       0C0   [8]  00 00 00 00 01 00 00 00
  can1  0000020B   [4]  00 00 00 00
  can1       0C0   [8]  00 00 00 00 01 00 00 00
  can1  00000B02   [8]  8B 09 00 6F 00 00 00 00
  can1       0AD   [8]  00 00 00 00 00 00 00 00
  can1  0000020B   [4]  C2 C8 00 00
  can1       0AC   [8]  00 00 00 00 52 11 0D 00
  can1       0AB   [8]  00 00 00 00 00 00 00 00
  can1       0A8   [8]  47 00 49 22 00 00 00 00
  can1       0A7   [8]  17 15 00 00 76 FF 4B FF
  can1       0A6   [8]  00 00 00 00 00 00 00 00
  can1       0A5   [8]  E2 05 00 00 00 00 09 06
  can1  00000B02   [8]  8B 09 00 AE 00 00 00 00
  can1       0A4   [8]  00 00 00 00 00 00 00 00
  can1       0A3   [8]  EC 01 E7 01 EC 01 EB 01
  can1       0C0   [8]  00 00 00 00 01 00 00 00
  can1  0000020B   [4]  42 19 99 9A
  can1       0C0   [8]  00 00 00 00 01 00 00 00
  can1  00000B02   [8]  8B 09 00 6E 00 00 00 00
  can1       0AD   [8]  00 00 00 00 00 00 00 00
  can1  0000020B   [4]  42 C8 00 00
  can1       0AC   [8]  00 00 00 00 55 11 0D 00
  can1       0AB   [8]  00 00 00 00 00 00 00 00
  can1       0A8   [8]  47 00 49 22 FC FF 00 00
  can1       0A7   [8]  13 15 00 00 7A FF 46 FF
  can1       0A6   [8]  FE FF FE FF 15 00 00 00
  can1       0A5   [8]  E1 05 00 00 00 00 09 06
  can1  00000B02   [8]  8B 09 00 AD 00 00 00 00
  can1       0A4   [8]  00 00 00 00 00 00 00 00
  can1       0A3   [8]  EC 01 E6 01 EC 01 EB 01
  can1       0C0   [8]  00 00 00 00 01 00 00 00
  can1  0000020B   [4]  42 17 99 9A
  can1  00000B02   [8]  8B 09 00 6B 00 00 00 00
  can1       0AD   [8]  00 00 00 00 00 00 00 00
  can1  0000020B   [4]  42 8C 00 00
  can1       0AC   [8]  00 00 01 00 58 11 0D 00
  can1       0AB   [8]  00 00 00 00 00 00 00 00
  can1       0A8   [8]  47 00 49 22 FF FF 01 00
  can1       0A7   [8]  14 15 00 00 71 FF 3E FF
  can1  00000B02   [8]  8B 09 00 AA 00 00 00 00
  can1       0A6   [8]  FE FF 00 00 FF FF 00 00
  can1       0A5   [8]  E1 05 00 00 00 00 09 06
  can1       0A4   [8]  00 00 00 00 00 00 00 00
  can1       0A3   [8]  EC 01 E6 01 EB 01 EB 01
  can1       0C0   [8]  00 00 00 00 01 00 00 00
  can1  0000020B   [4]  00 00 00 00
  can1       0C0   [8]  00 00 00 00 01 00 00 00
  can1  00000B02   [8]  8B 09 00 AC 00 00 00 00
  can1       0AD   [8]  00 00 00 00 00 00 00 00
  can1  0000020B   [4]  42 18 66 66
  can1       0AC   [8]  00 00 00 00 5B 11 0D 00
  can1       0AB   [8]  00 00 00 00 00 00 00 00
  can1       0A8   [8]  47 00 49 22 F6 FF 00 00
  can1       0A7   [8]  11 15 00 00 87 FF 4F FF
  can1       0A6   [8]  FB FF FB FF F6 FF 00 00
  can1       0A5   [8]  E2 05 00 00 00 00 09 06
  can1  00000B02   [8]  8B 09 00 6D 00 00 00 00
  can1       0A4   [8]  00 00 00 00 00 00 00 00
  can1       0A3   [8]  EA 01 E6 01 EB 01 EB 01
  can1       0C0   [8]  00 00 00 00 01 00 00 00
  can1  0000020B   [4]  42 F0 00 00
  can1       0C0   [8]  00 00 00 00 01 00 00 00
  can1  00000B02   [8]  8B 09 00 3F 00 00 00 00
  can1       0AD   [8]  00 00 00 00 00 00 00 00
  can1  0000020B   [4]  43 1A 80 00
  can1       0AC   [8]  00 00 FF FF 5E 11 0D 00
  can1       0AB   [8]  00 00 00 00 00 00 00 00
  can1       0A8   [8]  47 00 49 22 01 00 FD FF
  can1       0A7   [8]  0E 15 00 00 71 FF 3E FF
  can1       0A6   [8]  02 00 FE FF 01 00 00 00
  can1       0A5   [8]  E1 05 00 00 00 00 09 06
  can1  00000B02   [8]  8B 09 00 7E 00 00 00 00
  can1       0A4   [8]  00 00 00 00 00 00 00 00
  can1       0A3   [8]  EC 01 E6 01 EC 01 EB 01
  can1       0C0   [8]  00 00 00 00 01 00 00 00
  can1  0000020B   [4]  41 E4 CC CD
  can1       0C0   [8]  00 00 00 00 01 00 00 00
  can1  00000B02   [8]  8B 09 00 A6 00 00 00 00
  can1       0AD   [8]  00 00 00 00 00 00 00 00
  can1  0000020B   [4]  3F 80 00 00
  can1       0AE   [8]  10 00 24 18 10 05 13 20
  can1       0AC   [8]  00 00 00 00 61 11 0D 00
  can1       0AB   [8]  00 00 00 00 00 00 00 00
  can1       0AA   [8]  04 00 09 04 01 00 00 00
  can1       0A9   [8]  96 00 FA 00 FB 01 7B 04
  can1       0A8   [8]  47 00 49 22 FF FF 01 00
  can1  00000B02   [8]  8B 09 00 7D 00 00 00 00
  can1       0A7   [8]  1B 15 00 00 83 FF 43 FF
  can1       0A6   [8]  FE FF 00 00 FF FF 00 00
  can1       0A5   [8]  E2 05 00 00 00 00 09 06
  can1       0A4   [8]  00 00 00 00 00 00 00 00
  can1       0A3   [8]  EC 01 E6 01 EC 01 EB 01
  can1       0A2   [8]  F0 D8 F0 D8 21 01 00 00
  can1       0A1   [8]  B0 01 E9 08 E7 08 F0 D8
  can1       0A0   [8]  7D 01 7B 01 81 01 93 01
  can1       0C0   [8]  00 00 00 00 01 00 00 00
  can1       0AD   [8]  00 00 00 00 00 00 00 00
  can1  0000020B   [4]  00 00 00 00
  can1       0AC   [8]  00 00 00 00 64 11 0D 00
  can1       0AB   [8]  00 00 00 00 00 00 00 00
  can1       0A8   [8]  47 00 49 22 F6 FF 00 00
  can1       0A7   [8]  19 15 00 00 7F FF 43 FF
  can1       0A6   [8]  FB FF FB FF FD FF 00 00
  can1       0A5   [8]  E2 05 00 00 00 00 09 06
  can1  00000B02   [8]  8B 09 00 AB 00 00 00 00
  can1       0A4   [8]  00 00 00 00 00 00 00 00
  can1       0A3   [8]  EC 01 E6 01 EC 01 EB 01
  can1       0C0   [8]  00 00 00 00 01 00 00 00
  can1       0C0   [8]  00 00 00 00 01 00 00 00
  can1  0000020B   [4]  42 21 33 33
  can1       0AD   [8]  00 00 00 00 00 00 00 00
  can1       0AC   [8]  00 00 00 00 67 11 0D 00
  can1  00000B02   [8]  8B 09 00 6C 00 00 00 00
  can1       0AB   [8]  00 00 00 00 00 00 00 00
  can1       0A8   [8]  47 00 49 22 F6 FF 00 00
  can1       0A7   [8]  14 15 00 00 83 FF 54 FF
  can1       0A6   [8]  FB FF FB FF FA FF 00 00
  can1       0A5   [8]  E1 05 00 00 00 00 09 06
  can1       0A4   [8]  00 00 00 00 00 00 00 00
  can1       0A3   [8]  EC 01 E6 01 EC 01 EB 01
  can1       0C0   [8]  00 00 00 00 01 00 00 00
  can1  0000020B   [4]  44 FA 00 00
  can1       0C0   [8]  00 00 00 00 01 00 00 00
  can1  00000B02   [8]  8B 09 00 8C 00 00 00 00
  can1       0AD   [8]  00 00 00 00 00 00 00 00
  can1  0000020B   [4]  00 00 00 00
  can1       0AC   [8]  00 00 00 00 6A 11 0D 00
  can1       0AB   [8]  00 00 00 00 00 00 00 00
  can1       0A8   [8]  47 00 49 22 0D 00 00 00
  can1       0A7   [8]  19 15 00 00 65 FF 4B FF
  can1  00000B02   [8]  8B 09 00 99 00 00 00 00
  can1       0A6   [8]  02 00 03 00 02 00 00 00
  can1       0A5   [8]  E2 05 00 00 00 00 0A 06
  can1       0A4   [8]  00 00 00 00 00 00 00 00
  can1       0A3   [8]  EC 01 E6 01 EB 01 EB 01
  can1       0C0   [8]  00 00 00 00 01 00 00 00
  can1  0000020B   [4]  C1 89 99 9A
  can1       0C0   [8]  00 00 00 00 01 00 00 00
  can1  00000B02   [8]  8B 09 00 AA 00 00 00 00
  can1       0AD   [8]  00 00 00 00 00 00 00 00
  can1  0000020B   [4]  00 00 00 00
  can1       0AC   [8]  00 00 00 00 6D 11 0D 00
  can1       0AB   [8]  00 00 00 00 00 00 00 00
  can1       0A8   [8]  47 00 49 22 09 00 FF FF
  can1       0A7   [8]  14 15 00 00 71 FF 3E FF
  can1       0A6   [8]  FE FF FE FF 07 00 00 00
  can1       0A5   [8]  E1 05 FF FF 00 00 0A 06
  can1  00000B02   [8]  8B 09 00 8D 00 00 00 00
  can1       0A4   [8]  00 00 00 00 00 00 00 00
  can1       0A3   [8]  EC 01 E6 01 EB 01 EB 01
  can1       0C0   [8]  00 00 00 00 01 00 00 00
  can1  0000020B   [4]  00 00 00 00
  can1       0C0   [8]  00 00 00 00 01 00 00 00
  can1  00000B02   [8]  8B 09 00 98 00 00 00 00
  can1       0AD   [8]  00 00 00 00 00 00 00 00
  can1  0000020B   [4]  C1 64 CC CD
  can1       0AC   [8]  00 00 00 00 70 11 0D 00
  can1       0AB   [8]  00 00 00 00 00 00 00 00
  can1       0A8   [8]  47 00 49 22 FC FF 00 00
  can1       0A7   [8]  13 15 00 00 94 FF 02 FF
  can1       0A6   [8]  FE FF FE FF 0A 00 00 00
  can1       0A5   [8]  E1 05 00 00 00 00 0A 06
  can1  00000B02   [8]  8B 09 00 8B 00 00 00 00
  can1       0A4   [8]  00 00 00 00 00 00 00 00
  can1       0A3   [8]  EC 01 E6 01 EB 01 EB 01
  can1       0C0   [8]  00 00 00 00 01 00 00 00
  can1  0000020B   [4]  40 9F FF F6
  can1       0C0   [8]  00 00 00 00 01 00 00 00
  can1  00000B02   [8]  8B 09 00 3F 00 00 00 00
  can1       0AD   [8]  00 00 00 00 00 00 00 00
  can1  0000020B   [4]  43 1A 99 9A
  can1       0AC   [8]  00 00 FF FF 73 11 0D 00
  can1       0AB   [8]  00 00 00 00 00 00 00 00
  can1       0A8   [8]  47 00 49 22 07 00 FD FF
  can1       0A7   [8]  17 15 00 00 71 FF 3E FF
  can1       0A6   [8]  06 00 00 00 0A 00 00 00
  can1       0A5   [8]  E1 05 00 00 00 00 0A 06
  can1  00000B02   [8]  8B 09 00 7E 00 00 00 00
  can1       0A4   [8]  00 00 00 00 00 00 00 00
  can1       0A3   [8]  EC 01 E6 01 EB 01 EB 01
  can1       0C0   [8]  00 00 00 00 01 00 00 00
  can1  0000020B   [4]  41 E7 33 33
  can1  00000B02   [8]  8B 09 00 A6 00 00 00 00
  can1       0AD   [8]  00 00 00 00 00 00 00 00
  can1       0AC   [8]  00 00 01 00 76 11 0D 00
  can1       0AB   [8]  00 00 00 00 00 00 00 00
  can1       0A8   [8]  47 00 49 22 02 00 02 00
  can1       0A7   [8]  13 15 00 00 7A FF 4F FF
  can1       0A6   [8]  FE FF 03 00 05 00 00 00
  can1       0A5   [8]  E2 05 00 00 00 00 0A 06
  can1       0A4   [8]  00 00 00 00 00 00 00 00
  can1       0A3   [8]  EC 01 E6 01 EB 01 EC 01
  can1       0C0   [8]  00 00 00 00 01 00 00 00
  can1  0000020B   [4]  3F 80 00 00
  can1       0C0   [8]  00 00 00 00 01 00 00 00
  can1  00000B02   [8]  8B 09 00 7D 00 00 00 00
  can1  0000020B   [4]  00 00 00 00
  can1       0AD   [8]  00 00 00 00 00 00 00 00
  can1       0AC   [8]  00 00 00 00 79 11 0D 00
  can1       0AB   [8]  00 00 00 00 00 00 00 00
  can1       0A8   [8]  47 00 49 22 FC FF FD FF
  can1  00000B02   [8]  8B 09 00 91 00 00 00 00
  can1       0A7   [8]  11 15 00 00 76 FF 46 FF
  can1       0A6   [8]  00 00 FB FF FD FF 00 00
  can1       0A5   [8]  E1 05 FF FF 00 00 0A 06
  can1       0A4   [8]  00 00 00 00 00 00 00 00
  can1       0A3   [8]  EC 01 E6 01 EC 01 EC 01
  can1       0C0   [8]  00 00 00 00 01 00 00 00
  can1  0000020B   [4]  00 00 00 00
  can1       0C0   [8]  00 00 00 00 01 00 00 00
  can1  00000B02   [8]  8B 09 00 3B 00 00 00 00
  can1       0AD   [8]  00 00 00 00 00 00 00 00
  can1  0000020B   [4]  BE 99 99 9A
  can1       0AC   [8]  00 00 01 00 7C 11 0D 00
  can1       0AB   [8]  00 00 00 00 00 00 00 00
  can1       0A8   [8]  47 00 49 22 EF FF 01 00
  can1       0A7   [8]  17 15 00 00 7F FF 43 FF
  can1       0A6   [8]  00 00 F9 FF F4 FF 00 00
  can1       0A5   [8]  E2 05 00 00 00 00 0A 06
  can1  00000B02   [8]  8B 09 00 3A 00 00 00 00
  can1       0A4   [8]  00 00 00 00 00 00 00 00
  can1       0A3   [8]  EC 01 E6 01 EC 01 EB 01
  can1       0C0   [8]  00 00 00 00 01 00 00 00
  can1  0000020B   [4]  BF 00 00 00
  can1       0C0   [8]  00 00 00 00 01 00 00 00
  can1  00000B02   [8]  8B 09 00 A4 00 00 00 00
  can1       0AD   [8]  00 00 00 00 00 00 00 00
  can1  0000020B   [4]  00 00 00 00
  can1       0AC   [8]  00 00 00 00 7F 11 0D 00
  can1       0AB   [8]  00 00 00 00 00 00 00 00
  can1       0A8   [8]  47 00 49 22 08 00 00 00
  can1       0A7   [8]  21 15 00 00 76 FF 4F FF
  can1       0A6   [8]  04 00 04 00 05 00 00 00
  can1       0A5   [8]  E2 05 00 00 00 00 0A 06
  can1  00000B02   [8]  8B 09 00 39 00 00 00 00
  can1       0A4   [8]  00 00 00 00 00 00 00 00
  can1       0A3   [8]  EC 01 E6 01 EC 01 EB 01
  can1       0C0   [8]  00 00 00 00 01 00 00 00
  can1  0000020B   [4]  00 00 00 00
  can1       0C0   [8]  00 00 00 00 01 00 00 00
  can1  00000B02   [8]  8B 09 00 AA 00 00 00 00
  can1       0AD   [8]  00 00 00 00 00 00 00 00
  can1  0000020B   [4]  00 00 00 00
  can1       0AE   [8]  10 00 24 18 10 05 13 20
  can1       0AC   [8]  00 00 00 00 82 11 0D 00
  can1       0AB   [8]  00 00 00 00 00 00 00 00
  can1       0AA   [8]  04 00 09 04 01 00 00 00
  can1       0A9   [8]  96 00 FA 00 FA 01 75 04
  can1       0A8   [8]  47 00 49 22 0D 00 00 00
  can1  00000B02   [8]  8B 09 00 9C 00 00 00 00
  can1       0A7   [8]  19 15 00 00 76 FF 4F FF
  can1       0A6   [8]  06 00 07 00 08 00 00 00
  can1       0A5   [8]  E3 05 00 00 00 00 0A 06
  can1       0A4   [8]  00 00 00 00 00 00 00 00
  can1       0A3   [8]  EC 01 E6 01 EC 01 EB 01
  can1       0A2   [8]  F0 D8 F0 D8 21 01 00 00
  can1       0A1   [8]  B0 01 E9 08 E7 08 F0 D8
  can1       0A0   [8]  7C 01 7C 01 80 01 93 01
  can1       0C0   [8]  00 00 00 00 01 00 00 00
  can1       0AD   [8]  00 00 00 00 00 00 00 00
  can1  0000020B   [4]  00 00 00 00
  can1       0AC   [8]  00 00 01 00 85 11 0D 00
  can1       0AB   [8]  00 00 00 00 00 00 00 00
  can1       0A8   [8]  47 00 49 22 02 00 00 00
  can1       0A7   [8]  0A 15 00 00 7A FF 3A FF
  can1       0A6   [8]  00 00 01 00 FF FF 00 00
  can1       0A5   [8]  E3 05 00 00 00 00 09 06
  can1  00000B02   [8]  8B 09 00 38 00 00 00 00
  can1       0A4   [8]  00 00 00 00 00 00 00 00
  can1       0A3   [8]  EC 01 E7 01 EC 01 EB 01
  can1       0C0   [8]  00 00 00 00 01 00 00 00
  can1  0000020B   [4]  44 07 06 66
  can1       0C0   [8]  00 00 00 00 01 00 00 00
  can1  00000B02   [8]  8B 09 00 3F 00 00 00 00
  can1       0AD   [8]  00 00 00 00 00 00 00 00
  can1  0000020B   [4]  43 1A 80 00
  can1       0AC   [8]  00 00 00 00 88 11 0D 00
  can1       0AB   [8]  00 00 00 00 00 00 00 00
  can1       0A8   [8]  47 00 49 22 0A 00 FE FF
  can1       0A7   [8]  11 15 00 00 7F FF 3A FF
  can1       0A6   [8]  06 00 03 00 01 00 00 00
  can1       0A5   [8]  E1 05 00 00 00 00 09 06
  can1  00000B02   [8]  8B 09 00 7E 00 00 00 00
  can1       0A4   [8]  00 00 00 00 00 00 00 00
  can1       0A3   [8]  EC 01 E7 01 EB 01 EB 01
  can1       0C0   [8]  00 00 00 00 01 00 00 00
  can1  0000020B   [4]  41 E7 33 33
  can1       0C0   [8]  00 00 00 00 01 00 00 00
  can1  00000B02   [8]  8B 09 00 A6 00 00 00 00
  can1       0AD   [8]  00 00 00 00 00 00 00 00
  can1  0000020B   [4]  3F 80 00 00
  can1       0AC   [8]  00 00 00 00 8B 11 0D 00
  can1       0AB   [8]  00 00 00 00 00 00 00 00
  can1       0A8   [8]  47 00 49 22 0A 00 FE FF
  can1       0A7   [8]  17 15 00 00 76 FF 4F FF
  can1       0A6   [8]  06 00 03 00 05 00 00 00
  can1       0A5   [8]  E1 05 00 00 00 00 09 06
  can1  00000B02   [8]  8B 09 00 7D 00 00 00 00
  can1       0A4   [8]  00 00 00 00 00 00 00 00
  can1       0A3   [8]  EC 01 E7 01 EB 01 EB 01
  can1       0C0   [8]  00 00 00 00 01 00 00 00
  can1  0000020B   [4]  00 00 00 00
  can1       0C0   [8]  00 00 00 00 01 00 00 00
  can1       0AD   [8]  00 00 00 00 00 00 00 00
  can1       0AC   [8]  00 00 00 00 8E 11 0D 00
  can1       0AB   [8]  00 00 00 00 00 00 00 00
  can1       0A8   [8]  47 00 49 22 05 00 01 00
  can1       0A7   [8]  13 15 00 00 7A FF 43 FF
  can1       0A6   [8]  00 00 03 00 02 00 00 00
  can1       0A5   [8]  E1 05 00 00 00 00 09 06
  can1       0A4   [8]  00 00 00 00 00 00 00 00
  can1       0A3   [8]  EB 01 E7 01 EB 01 EC 01
  can1       0C0   [8]  00 00 00 00 01 00 00 00
  can1       0C0   [8]  00 00 00 00 01 00 00 00
  can1       0AD   [8]  00 00 00 00 00 00 00 00
  can1       0AC   [8]  00 00 00 00 91 11 0D 00
  can1       0AB   [8]  00 00 00 00 00 00 00 00
  can1       0A8   [8]  47 00 49 22 05 00 FE FF
  can1       0A7   [8]  11 15 00 00 6E FF 35 FF
  can1       0A6   [8]  03 00 00 00 00 00 00 00
  can1       0A5   [8]  E2 05 00 00 00 00 09 06
  can1       0A4   [8]  00 00 00 00 00 00 00 00
  can1       0A3   [8]  EB 01 E6 01 EB 01 EB 01
  can1       0C0   [8]  00 00 00 00 01 00 00 00
  can1       0AD   [8]  00 00 00 00 00 00 00 00
  can1       0AC   [8]  00 00 00 00 94 11 0D 00
  can1       0AB   [8]  00 00 00 00 00 00 00 00
  can1       0A8   [8]  47 00 49 22 05 00 01 00
  can1       0A7   [8]  0E 15 00 00 76 FF 4B FF
  can1       0A6   [8]  00 00 03 00 00 00 00 00
  can1       0A5   [8]  E2 05 00 00 00 00 09 06
  can1       0A4   [8]  00 00 00 00 00 00 00 00
  can1       0A3   [8]  EC 01 E6 01 EC 01 EB 01
  can1       0C0   [8]  00 00 00 00 01 00 00 00
  can1       0C0   [8]  00 00 00 00 01 00 00 00
  can1  00000B02   [8]  8B 09 00 AA 00 00 00 00
  can1       0AD   [8]  00 00 00 00 00 00 00 00
  can1  0000020B   [4]  00 00 00 00
  can1       0AC   [8]  00 00 FF FF 97 11 0D 00
  can1       0AB   [8]  00 00 00 00 00 00 00 00
  can1       0A8   [8]  47 00 49 22 FC FF FD FF
  can1       0A7   [8]  0E 15 00 00 6E FF 3E FF
  can1       0A6   [8]  00 00 FB FF 02 00 00 00
  can1       0A5   [8]  E3 05 00 00 00 00 09 06
  can1       0A4   [8]  00 00 00 00 00 00 00 00
  can1       0A3   [8]  EC 01 E6 01 EC 01 EA 01
  can1       0C0   [8]  00 00 00 00 01 00 00 00
  can1       0C0   [8]  00 00 00 00 01 00 00 00
  can1       0AD   [8]  00 00 00 00 00 00 00 00
  can1       0AC   [8]  00 00 00 00 9A 11 0D 00
  can1       0AB   [8]  00 00 00 00 00 00 00 00
  can1       0A8   [8]  47 00 49 22 FD FF 00 00
  can1       0A7   [8]  17 15 00 00 7A FF 4B FF
  can1       0A6   [8]  FE FF FF FF 00 00 00 00
  can1       0A5   [8]  E0 05 FF FF 00 00 0A 06
  can1       0A4   [8]  00 00 00 00 00 00 00 00
  can1       0A3   [8]  EC 01 E6 01 EB 01 EA 01
  can1       0C0   [8]  00 00 00 00 01 00 00 00
  can1  00000B02   [8]  8B 09 00 3F 00 00 00 00
  can1  0000020B   [4]  43 1A 80 00
  can1       0C0   [8]  00 00 00 00 01 00 00 00
  can1  00000B02   [8]  8B 09 00 7E 00 00 00 00
  can1       0AD   [8]  00 00 00 00 00 00 00 00
  can1  0000020B   [4]  41 E7 33 33
  can1       0AC   [8]  00 00 00 00 9D 11 0D 00
  can1       0AB   [8]  00 00 00 00 00 00 00 00
  can1       0A8   [8]  47 00 49 22 0A 00 FF FF
  can1       0A7   [8]  11 15 00 00 76 FF 4F FF
  can1       0A6   [8]  06 00 04 00 02 00 00 00
  can1       0A5   [8]  E1 05 00 00 00 00 0A 06
  can1  00000B02   [8]  8B 09 00 A6 00 00 00 00
  can1       0A4   [8]  00 00 00 00 00 00 00 00
  can1       0A3   [8]  EC 01 E6 01 EB 01 EB 01
  can1       0C0   [8]  00 00 00 00 01 00 00 00
  can1  0000020B   [4]  3F 80 00 00
  can1       0C0   [8]  00 00 00 00 01 00 00 00
  can1  00000B02   [8]  8B 09 00 7D 00 00 00 00
  can1       0AD   [8]  00 00 00 00 00 00 00 00
  can1  0000020B   [4]  00 00 00 00
  can1       0AC   [8]  00 00 FE FF A0 11 0D 00
  can1       0AB   [8]  00 00 00 00 00 00 00 00
  can1       0A8   [8]  47 00 49 22 10 00 FB FF
  can1       0A7   [8]  11 15 00 00 76 FF 4B FF
  can1       0A6   [8]  0B 00 04 00 08 00 00 00
  can1       0A5   [8]  E1 05 FF FF FF FF 0A 06
  can1       0A4   [8]  00 00 00 00 00 00 00 00
  can1       0A3   [8]  EC 01 E6 01 EB 01 EB 01
  can1       0C0   [8]  00 00 00 00 01 00 00 00
  can1       0AD   [8]  00 00 00 00 00 00 00 00
  can1       0AE   [8]  10 00 24 18 10 05 13 20
  can1       0AC   [8]  00 00 01 00 A3 11 0D 00
  can1       0AB   [8]  00 00 00 00 00 00 00 00
  can1       0AA   [8]  04 00 09 04 01 00 00 00
  can1       0A9   [8]  97 00 FA 00 FA 01 7A 04
  can1       0A8   [8]  47 00 49 22 F4 FF 02 00
  can1       0A7   [8]  14 15 00 00 7F FF 46 FF
  can1       0A6   [8]  F8 FF FC FF F4 FF 00 00
  can1       0A5   [8]  E1 05 00 00 00 00 0A 06
  can1       0A4   [8]  00 00 00 00 00 00 00 00
  can1       0A3   [8]  EC 01 E6 01 EB 01 EB 01
  can1       0A2   [8]  F0 D8 F0 D8 1A 01 00 00
  can1       0A1   [8]  B0 01 E9 08 E7 08 F0 D8
  can1       0A0   [8]  7D 01 7B 01 7F 01 92 01
  can1       0C0   [8]  00 00 00 00 01 00 00 00
  can1       0C0   [8]  00 00 00 00 01 00 00 00
  can1  00000B02   [8]  80 09 00 00 00 00 00 00
  can1       0AD   [8]  00 00 00 00 00 00 00 00
  can1  0000020B   [1]  06
  can1       0AC   [8]  00 00 00 00 A6 11 0D 00
  can1       0AB   [8]  00 00 00 00 00 00 00 00
  can1       0A8   [8]  47 00 49 22 01 00 00 00
  can1       0A7   [8]  14 15 00 00 76 FF 46 FF
  can1       0A6   [8]  00 00 01 00 08 00 00 00
  can1       0A5   [8]  E0 05 FF FF 00 00 0A 06
  can1       0A4   [8]  00 00 00 00 00 00 00 00
  can1       0A3   [8]  EC 01 E5 01 EB 01 EC 01
  can1       0C0   [8]  00 00 00 00 01 00 00 00
  can1       0C0   [8]  00 00 00 00 01 00 00 00
  can1       0AD   [8]  00 00 00 00 00 00 00 00
  can1       0AC   [8]  00 00 00 00 A9 11 0D 00
  can1       0AB   [8]  00 00 00 00 00 00 00 00
  can1       0A8   [8]  47 00 49 22 08 00 00 00
  can1       0A7   [8]  0E 15 00 00 7F FF 43 FF
  can1       0A6   [8]  02 00 04 00 02 00 00 00
  can1       0A5   [8]  E0 05 00 00 00 00 0A 06
  can1       0A4   [8]  00 00 00 00 00 00 00 00
  can1       0A3   [8]  EC 01 E5 01 EC 01 EC 01
  can1       0C0   [8]  00 00 00 00 01 00 00 00
  can1       0C0   [8]  00 00 00 00 01 00 00 00
  can1  00000B02   [8]  8B 09 00 AA 00 00 00 00
  can1       0AD   [8]  00 00 00 00 00 00 00 00
  can1  0000020B   [4]  00 00 00 00
  can1       0AC   [8]  00 00 00 00 AC 11 0D 00
  can1       0AB   [8]  00 00 00 00 00 00 00 00
  can1       0A8   [8]  47 00 49 22 05 00 FF FF
  can1       0A7   [8]  0E 15 00 00 3E FF 46 FF
  can1       0A6   [8]  02 00 01 00 00 00 00 00
  can1       0A5   [8]  E0 05 00 00 00 00 0A 06
  can1       0A4   [8]  00 00 00 00 00 00 00 00
  can1       0A3   [8]  EC 01 E6 01 EC 01 EB 01
  can1       0C0   [8]  00 00 00 00 01 00 00 00
  can1       0C0   [8]  00 00 00 00 01 00 00 00
  can1       0AD   [8]  00 00 00 00 00 00 00 00
  can1       0AC   [8]  00 00 00 00 AF 11 0D 00
  can1       0AB   [8]  00 00 00 00 00 00 00 00
  can1       0A8   [8]  47 00 49 22 07 00 00 00
  can1       0A7   [8]  13 15 00 00 76 FF 4B FF
  can1       0A6   [8]  02 00 04 00 08 00 00 00
  can1       0A5   [8]  E3 05 01 00 00 00 0A 06
  can1       0A4   [8]  00 00 00 00 00 00 00 00
  can1       0A3   [8]  EC 01 E6 01 EC 01 EB 01
  can1       0C0   [8]  00 00 00 00 01 00 00 00
  can1  00000B02   [8]  8B 09 00 3F 00 00 00 00
  can1  0000020B   [4]  43 1A 99 9A
  can1       0AD   [8]  00 00 00 00 00 00 00 00
  can1  00000B02   [8]  8B 09 00 7E 00 00 00 00
  can1       0AC   [8]  00 00 FC FF B2 11 0D 00
  can1       0AB   [8]  00 00 00 00 00 00 00 00
  can1       0A8   [8]  47 00 49 22 FF FF FF FF
  can1       0A7   [8]  19 15 00 00 7A FF 54 FF
  can1       0A6   [8]  00 00 FF FF 00 00 00 00
  can1       0A5   [8]  E1 05 00 00 00 00 0A 06
  can1       0A4   [8]  00 00 00 00 00 00 00 00
  can1       0A3   [8]  EC 01 E6 01 EB 01 EB 01
  can1       0C0   [8]  00 00 00 00 01 00 00 00
  can1  0000020B   [4]  41 E1 99 9A
  can1       0C0   [8]  00 00 00 00 01 00 00 00
  can1  00000B02   [8]  8B 09 00 A6 00 00 00 00
  can1  0000020B   [4]  3F 80 00 00
  can1       0AD   [8]  00 00 00 00 00 00 00 00
  can1       0AC   [8]  00 00 00 00 B5 11 0D 00
  can1       0AB   [8]  00 00 00 00 00 00 00 00
  can1       0A8   [8]  47 00 49 22 FC FF 00 00
  can1       0A7   [8]  13 15 00 00 7A FF 46 FF
  can1  00000B02   [8]  8B 09 00 7D 00 00 00 00
  can1       0A6   [8]  FE FF FF FF 00 00 00 00
  can1       0A5   [8]  E1 05 00 00 00 00 0A 06
  can1       0A4   [8]  00 00 00 00 00 00 00 00
  can1       0A3   [8]  EC 01 E6 01 EB 01 EB 01
  can1       0C0   [8]  00 00 00 00 01 00 00 00
  can1  0000020B   [4]  00 00 00 00
  can1       0C0   [8]  00 00 00 00 01 00 00 00
  can1       0AD   [8]  00 00 00 00 00 00 00 00
  can1       0AC   [8]  00 00 00 00 B8 11 0D 00
  can1       0AB   [8]  00 00 00 00 00 00 00 00
  can1       0A8   [8]  47 00 49 22 FE FF FF FF
  can1       0A7   [8]  13 15 00 00 71 FF 46 FF
  can1       0A6   [8]  00 00 FE FF FF FF 00 00
  can1       0A5   [8]  E0 05 00 00 00 00 0A 06
  can1       0A4   [8]  00 00 00 00 00 00 00 00
  can1       0A3   [8]  EC 01 E6 01 EB 01 EB 01
  can1       0C0   [8]  00 00 00 00 01 00 00 00
  can1       0C0   [8]  00 00 00 00 01 00 00 00
  can1       0AD   [8]  00 00 00 00 00 00 00 00
  can1       0AC   [8]  00 00 FE FF BB 11 0D 00
  can1       0AB   [8]  00 00 00 00 00 00 00 00
  can1       0A8   [8]  47 00 49 22 0A 00 FB FF
  can1       0A7   [8]  0A 15 00 00 71 FF 43 FF
  can1       0A6   [8]  FB FF FF FF 04 00 00 00
  can1       0A5   [8]  E1 05 00 00 00 00 0A 06
  can1       0A4   [8]  00 00 00 00 00 00 00 00
  can1       0A3   [8]  EC 01 E6 01 EB 01 EB 01
  can1       0C0   [8]  00 00 00 00 01 00 00 00
  can1       0C0   [8]  00 00 00 00 01 00 00 00
  can1       0AD   [8]  00 00 00 00 00 00 00 00
  can1       0AC   [8]  00 00 00 00 BE 11 0D 00
  can1       0AB   [8]  00 00 00 00 00 00 00 00
  can1       0A8   [8]  47 00 49 22 FC FF 00 00
  can1       0A7   [8]  17 15 00 00 7A FF 46 FF
  can1       0A6   [8]  FE FF FF FF F9 FF 00 00
  can1       0A5   [8]  E1 05 00 00 00 00 0A 06
  can1       0A4   [8]  00 00 00 00 00 00 00 00
  can1       0A3   [8]  EC 01 E6 01 EC 01 EB 01
  can1       0C0   [8]  00 00 00 00 01 00 00 00
  can1  00000B02   [8]  8B 09 00 AA 00 00 00 00
  can1  0000020B   [4]  00 00 00 00
  can1       0AD   [8]  00 00 00 00 00 00 00 00
  can1       0AC   [8]  00 00 00 00 C1 11 0D 00
  can1       0AB   [8]  00 00 00 00 00 00 00 00
  can1       0A8   [8]  47 00 49 22 0A 00 FF FF
  can1       0A7   [8]  14 15 00 00 9C FF 58 FF
  can1       0A6   [8]  05 00 04 00 02 00 00 00
  can1       0A5   [8]  E1 05 00 00 00 00 0B 06
  can1       0A4   [8]  00 00 00 00 00 00 00 00
  can1       0A3   [8]  EC 01 E6 01 EC 01 EB 01
  can1       0C0   [8]  00 00 00 00 01 00 00 00
  can1       0C0   [8]  00 00 00 00 01 00 00 00
  can1       0AD   [8]  00 00 00 00 00 00 00 00
  can1       0AE   [8]  10 00 24 18 10 05 13 20
  can1       0AC   [8]  00 00 00 00 C4 11 0D 00
  can1       0AB   [8]  00 00 00 00 00 00 00 00
  can1       0AA   [8]  04 00 09 04 01 00 00 00
  can1       0A9   [8]  96 00 FA 00 FB 01 79 04
  can1       0A8   [8]  47 00 49 22 00 00 00 00
  can1       0A7   [8]  0E 15 00 00 76 FF 43 FF
  can1       0A6   [8]  00 00 00 00 08 00 00 00
  can1       0A5   [8]  E1 05 00 00 00 00 0A 06
  can1       0A4   [8]  00 00 00 00 00 00 00 00
  can1       0A3   [8]  EC 01 E6 01 EB 01 EB 01
  can1       0A2   [8]  F0 D8 F0 D8 21 01 00 00
  can1       0A1   [8]  B1 01 E9 08 E7 08 F0 D8
  can1  00000B02   [8]  8B 09 00 3F 00 00 00 00
  can1       0A0   [8]  7D 01 7C 01 81 01 93 01
  can1       0C0   [8]  00 00 00 00 01 00 00 00
  can1       0C0   [8]  00 00 00 00 01 00 00 00
  can1  0000020B   [4]  43 1A 99 9A
  can1       0AD   [8]  00 00 00 00 00 00 00 00
  can1       0AC   [8]  00 00 00 00 C7 11 0D 00
  can1       0AB   [8]  00 00 00 00 00 00 00 00
  can1       0A8   [8]  47 00 49 22 FC FF 00 00
  can1       0A7   [8]  11 15 00 00 7A FF 4B FF
  can1       0A6   [8]  FE FF FE FF FD FF 00 00
  can1  00000B02   [8]  8B 09 00 7E 00 00 00 00
  can1       0A5   [8]  E0 05 00 00 00 00 0A 06
  can1       0A4   [8]  00 00 00 00 00 00 00 00
  can1       0A3   [8]  EC 01 E6 01 EB 01 EA 01
  can1       0C0   [8]  00 00 00 00 01 00 00 00
  can1  0000020B   [4]  41 E7 33 33
  can1       0C0   [8]  00 00 00 00 01 00 00 00
  can1  00000B02   [8]  8B 09 00 A6 00 00 00 00
  can1       0AD   [8]  00 00 00 00 00 00 00 00
  can1  0000020B   [4]  3F 80 00 00
  can1       0AC   [8]  00 00 00 00 CA 11 0D 00
  can1       0AB   [8]  00 00 00 00 00 00 00 00
  can1       0A8   [8]  47 00 49 22 FC FF 00 00
  can1       0A7   [8]  13 15 00 00 7F FF 4B FF
  can1       0A6   [8]  FE FF FE FF 00 00 00 00
  can1       0A5   [8]  E2 05 00 00 00 00 0A 06
  can1  00000B02   [8]  8B 09 00 7D 00 00 00 00
  can1       0A4   [8]  00 00 00 00 00 00 00 00
  can1       0A3   [8]  EC 01 E6 01 EC 01 EA 01
  can1       0C0   [8]  00 00 00 00 01 00 00 00
  can1  0000020B   [4]  00 00 00 00
  can1       0C0   [8]  00 00 00 00 01 00 00 00
  can1       0AD   [8]  00 00 00 00 00 00 00 00
  can1       0AC   [8]  00 00 01 00 CD 11 0D 00
  can1       0AB   [8]  00 00 00 00 00 00 00 00
  can1       0A8   [8]  47 00 49 22 00 00 02 00
  can1       0A7   [8]  13 15 00 00 7A FF 4B FF
  can1       0A6   [8]  FE FF 01 00 FD FF 00 00
  can1       0A5   [8]  E0 05 00 00 00 00 0A 06
  can1       0A4   [8]  00 00 00 00 00 00 00 00
  can1       0A3   [8]  EC 01 E6 01 EB 01 EB 01
  can1       0C0   [8]  00 00 00 00 01 00 00 00
  can1       0AD   [8]  00 00 00 00 00 00 00 00
  can1       0AC   [8]  00 00 00 00 D0 11 0D 00
  can1       0AB   [8]  00 00 00 00 00 00 00 00
  can1       0A8   [8]  47 00 49 22 00 00 FF FF
  can1       0A7   [8]  0A 15 00 00 76 FF 3A FF
  can1       0A6   [8]  FE FF FC FF FB FF 00 00
  can1       0A5   [8]  E1 05 00 00 00 00 0A 06
  can1       0A4   [8]  00 00 00 00 00 00 00 00
  can1       0A3   [8]  EC 01 E6 01 EB 01 EB 01
  can1       0C0   [8]  00 00 00 00 01 00 00 00
  can1       0C0   [8]  00 00 00 00 01 00 00 00
  can1       0AD   [8]  00 00 00 00 00 00 00 00
  can1       0AC   [8]  00 00 00 00 D3 11 0D 00
  can1       0AB   [8]  00 00 00 00 00 00 00 00
  can1       0A8   [8]  47 00 49 22 02 00 00 00
  can1       0A7   [8]  0E 15 00 00 7F FF 43 FF
  can1       0A6   [8]  00 00 01 00 00 00 00 00
  can1       0A5   [8]  E0 05 00 00 00 00 0A 06
  can1       0A4   [8]  00 00 00 00 00 00 00 00
  can1       0A3   [8]  EC 01 E6 01 EC 01 EB 01
  can1       0C0   [8]  00 00 00 00 01 00 00 00
  can1  00000B02   [8]  8B 09 00 AA 00 00 00 00
  can1       0C0   [8]  00 00 00 00 01 00 00 00
  can1  0000020B   [4]  00 00 00 00
  can1       0AD   [8]  00 00 00 00 00 00 00 00
  can1       0AC   [8]  00 00 00 00 D6 11 0D 00
  can1       0AB   [8]  00 00 00 00 00 00 00 00
  can1       0A8   [8]  47 00 49 22 02 00 00 00
  can1       0A7   [8]  0E 15 00 00 76 FF 3E FF
  can1       0A6   [8]  00 00 01 00 02 00 00 00
  can1       0A5   [8]  E1 05 00 00 00 00 0A 06
  can1       0A4   [8]  00 00 00 00 00 00 00 00
  can1       0A3   [8]  EC 01 E6 01 EC 01 EB 01
  can1       0C0   [8]  00 00 00 00 01 00 00 00
  can1       0C0   [8]  00 00 00 00 01 00 00 00
  can1       0AD   [8]  00 00 00 00 00 00 00 00
  can1       0AC   [8]  00 00 01 00 D9 11 0D 00
  can1       0AB   [8]  00 00 00 00 00 00 00 00
  can1       0A8   [8]  47 00 49 22 FB FF 02 00
  can1       0A7   [8]  19 15 00 00 71 FF 4B FF
  can1       0A6   [8]  FB FF FF FF FF FF 00 00
  can1       0A5   [8]  E1 05 00 00 00 00 0A 06
  can1       0A4   [8]  00 00 00 00 00 00 00 00
  can1  00000B02   [8]  8B 09 00 3F 00 00 00 00
  can1       0A3   [8]  EC 01 E6 01 EB 01 EB 01
  can1       0C0   [8]  00 00 00 00 01 00 00 00
  can1  0000020B   [4]  43 1A 99 9A
  can1       0C0   [8]  00 00 00 00 01 00 00 00
  can1  00000B02   [8]  8B 09 00 7E 00 00 00 00
  can1       0AD   [8]  00 00 00 00 00 00 00 00
  can1  0000020B   [4]  41 E7 33 33
  can1       0AC   [8]  00 00 01 00 DC 11 0D 00
  can1       0AB   [8]  00 00 00 00 00 00 00 00
  can1       0A8   [8]  47 00 49 22 08 00 03 00
  can1       0A7   [8]  17 15 00 00 6E FF 4B FF
  can1       0A6   [8]  00 00 07 00 04 00 00 00
  can1       0A5   [8]  E2 05 00 00 00 00 0A 06
  can1  00000B02   [8]  8B 09 00 A6 00 00 00 00
  can1       0A4   [8]  00 00 00 00 00 00 00 00
  can1       0A3   [8]  EC 01 E6 01 EB 01 EB 01
  can1       0C0   [8]  00 00 00 00 01 00 00 00
  can1  0000020B   [4]  3F 80 00 00
  can1  00000B02   [8]  8B 09 00 7D 00 00 00 00
  can1       0AD   [8]  00 00 00 00 00 00 00 00
  can1       0AC   [8]  00 00 FE FF DF 11 0D 00
  can1       0AB   [8]  00 00 00 00 00 00 00 00
  can1       0A8   [8]  47 00 49 22 0A 00 FB FF
  can1       0A7   [8]  11 15 00 00 7F FF 4B FF
  can1       0A6   [8]  08 00 01 00 01 00 00 00
  can1       0A5   [8]  E2 05 00 00 00 00 0A 06
  can1       0A4   [8]  00 00 00 00 00 00 00 00
  can1       0A3   [8]  EB 01 E6 01 EB 01 EB 01
  can1       0C0   [8]  00 00 00 00 01 00 00 00
  can1  0000020B   [4]  00 00 00 00
  can1       0C0   [8]  00 00 00 00 01 00 00 00
  can1       0AD   [8]  00 00 00 00 00 00 00 00
  can1       0AC   [8]  00 00 01 00 E2 11 0D 00
  can1       0AB   [8]  00 00 00 00 00 00 00 00
  can1       0A8   [8]  47 00 49 22 FF FF 01 00
  can1       0A7   [8]  0E 15 00 00 76 FF 46 FF
  can1       0A6   [8]  FE FF 00 00 F6 FF 00 00
  can1       0A5   [8]  E1 05 00 00 00 00 0A 06
  can1       0A4   [8]  00 00 00 00 00 00 00 00
  can1       0A3   [8]  EB 01 E6 01 EC 01 EB 01
  can1       0C0   [8]  00 00 00 00 01 00 00 00
  can1       0C0   [8]  00 00 00 00 01 00 00 00
  can1       0AD   [8]  00 00 00 00 00 00 00 00
  can1       0AE   [8]  10 00 24 18 10 05 13 20
  can1       0AC   [8]  00 00 00 00 E5 11 0D 00
  can1       0AB   [8]  00 00 00 00 00 00 00 00
  can1       0AA   [8]  04 00 09 04 01 00 00 00
  can1       0A9   [8]  96 00 FA 00 FB 01 77 04
  can1       0A8   [8]  47 00 49 22 F3 FF FF FF
  can1       0A7   [8]  0C 15 00 00 7F FF 43 FF
  can1       0A6   [8]  FB FF F8 FF F9 FF 00 00
  can1       0A5   [8]  E1 05 00 00 00 00 0A 06
  can1       0A4   [8]  00 00 00 00 00 00 00 00
  can1       0A3   [8]  EC 01 E6 01 EC 01 EB 01
  can1       0A2   [8]  F0 D8 F0 D8 1F 01 00 00
